date Fri Oct 14 09:16:18.232 am 2022
base hex  timestamps absolute
internal events logged
// version 8.5.0
Begin Triggerblock Fri Oct 14 09:16:18.232 am 2022
   0.000000 Start of measurement
   0.000000    envNetworkState := "REPEAT_MESSAGE"
   0.000000    SV: 2 0 1 ::NM_CAN1::StateControl::ControlsDisabled = 2
   0.000000    SV: 2 0 1 ::NM_CAN1::NODES::N__delete::RequestIL = 0
   0.000000    SV: 2 0 1 ::NM_CAN1::NODES::N_DDM::State = 5
   0.000000    SV: 2 0 1 ::NM_CAN1::NODES::N_DDM::Mode = 1
   0.000000    SV: 2 0 1 ::NM_CAN1::NODES::N_DDM::RequestIL = 1
   0.000000    SV: 2 0 1 ::NM_CAN1::NODES::N_DSM::State = 5
   0.000000    SV: 2 0 1 ::NM_CAN1::NODES::N_DSM::Mode = 1
   0.000000    SV: 2 0 1 ::NM_CAN1::NODES::N_DSM::RequestIL = 1
   0.000000    SV: 2 0 1 ::NM_CAN1::NODES::N_GENERIC_GWMWakeup::RequestIL = 0
   0.000000    SV: 2 0 1 ::NM_CAN1::NODES::N_GWM::State = 5
   0.000000    SV: 2 0 1 ::NM_CAN1::NODES::N_GWM::Mode = 1
   0.000000    SV: 2 0 1 ::NM_CAN1::NODES::N_GWM::RequestIL = 1
   0.000000    SV: 2 0 1 ::NM_CAN1::NODES::N_HVAC_RCCM::State = 0
   0.000000    SV: 2 0 1 ::NM_CAN1::NODES::N_HVAC_RCCM::Mode = 0
   0.000000    SV: 2 0 1 ::NM_CAN1::NODES::N_HVAC_RCCM::RequestIL = 0
   0.000000    SV: 2 0 1 ::NM_CAN1::NODES::N_PDM::State = 5
   0.000000    SV: 2 0 1 ::NM_CAN1::NODES::N_PDM::Mode = 1
   0.000000    SV: 2 0 1 ::NM_CAN1::NODES::N_PDM::RequestIL = 1
   0.000000    SV: 2 0 1 ::NM_CAN1::NODES::N_RGTM::State = 5
   0.000000    SV: 2 0 1 ::NM_CAN1::NODES::N_RGTM::Mode = 1
   0.000000    SV: 2 0 1 ::NM_CAN1::NODES::N_RGTM::RequestIL = 1
   0.000000    SV: 2 0 1 ::NM_CAN1::NODES::N_RSM::State = 0
   0.000000    SV: 2 0 1 ::NM_CAN1::NODES::N_RSM::Mode = 0
   0.000000    SV: 2 0 1 ::NM_CAN1::NODES::N_RSM::RequestIL = 1
   0.000000    SV: 2 0 1 ::NM_CAN1::NODES::N_RTM::State = 0
   0.000000    SV: 2 0 1 ::NM_CAN1::NODES::N_RTM::Mode = 0
   0.000000    SV: 2 0 1 ::NM_CAN1::NODES::N_RTM::RequestIL = 1
   0.000000    SV: 2 0 1 ::NM_CAN1::NODES::N_SCMB_PSM::State = 0
   0.000000    SV: 2 0 1 ::NM_CAN1::NODES::N_SCMB_PSM::Mode = 0
   0.000000    SV: 2 0 1 ::NM_CAN1::NODES::N_SCMB_PSM::RequestIL = 1
   0.000000    SV: 2 0 1 ::NM_CAN1::NODES::N_SCME::State = 5
   0.000000    SV: 2 0 1 ::NM_CAN1::NODES::N_SCME::Mode = 1
   0.000000    SV: 2 0 1 ::NM_CAN1::NODES::N_SCME::RequestIL = 1
   0.000000    SV: 2 0 1 ::NM_CAN1::NODES::N_SCMG::RequestIL = 0
   0.000000    SV: 2 0 1 ::NM_CAN1::NODES::N_SCMH::RequestIL = 0
   0.000000    SV: 2 0 1 ::NM_CAN1::NODES::N_SOBDMD_AHCM_FOH::State = 0
   0.000000    SV: 2 0 1 ::NM_CAN1::NODES::N_SOBDMD_AHCM_FOH::Mode = 0
   0.000000    SV: 2 0 1 ::NM_CAN1::NODES::N_SOBDMD_AHCM_FOH::RequestIL = 1
   0.000000    SV: 2 0 1 ::NM_CAN1::NODES::N_SODL::RequestIL = 0
   0.000000    SV: 2 0 1 ::NM_CAN1::NODES::N_SODR::RequestIL = 0
   0.000000    SV: 2 0 1 ::NM_CAN1::NODES::N_TRM::State = 0
   0.000000    SV: 2 0 1 ::NM_CAN1::NODES::N_TRM::Mode = 0
   0.000000    SV: 2 0 1 ::NM_CAN1::NODES::N_TRM::RequestIL = 1
   0.000000    SV: 2 0 1 ::NM_CAN1::NODES::N_TSTR::RequestIL = 0
   0.000000    SV: 2 0 1 ::NM_CAN1::StateControl::ActiveNodes = 11
   0.005284 CAN 1 Status:chip status error active  - TxErr: 8 RxErr: 0
   0.005286 1  ErrorFrame	Flags = 0xfffe	CodeExt = 0x31d9	Code = 0xc7	ID = 0x580	DLC = 8	Position = 99	Length = 919968	Data = 0x80  0  0  0  0  0  0  0
   0.006340 CAN 1 Status:chip status error active  - TxErr: 16 RxErr: 0
   0.006342 1  ErrorFrame	Flags = 0xfffe	CodeExt = 0x31d9	Code = 0xc7	ID = 0x580	DLC = 8	Position = 99	Length = 919968	Data = 0x80  0  0  0  0  0  0  0
   0.007396 CAN 1 Status:chip status error active  - TxErr: 24 RxErr: 0
   0.007398 1  ErrorFrame	Flags = 0xfffe	CodeExt = 0x31d9	Code = 0xc7	ID = 0x580	DLC = 8	Position = 99	Length = 919968	Data = 0x80  0  0  0  0  0  0  0
   0.008452 CAN 1 Status:chip status error active  - TxErr: 32 RxErr: 0
   0.008454 1  ErrorFrame	Flags = 0xfffe	CodeExt = 0x31d9	Code = 0xc7	ID = 0x580	DLC = 8	Position = 99	Length = 919968	Data = 0x80  0  0  0  0  0  0  0
   0.009508 CAN 1 Status:chip status error active  - TxErr: 40 RxErr: 0
   0.009510 1  ErrorFrame	Flags = 0xfffe	CodeExt = 0x31d9	Code = 0xc7	ID = 0x580	DLC = 8	Position = 99	Length = 919968	Data = 0x80  0  0  0  0  0  0  0
   0.010564 CAN 1 Status:chip status error active  - TxErr: 48 RxErr: 0
   0.010566 1  ErrorFrame	Flags = 0xfffe	CodeExt = 0x31d9	Code = 0xc7	ID = 0x580	DLC = 8	Position = 99	Length = 919968	Data = 0x80  0  0  0  0  0  0  0
   0.011620 CAN 1 Status:chip status error active  - TxErr: 56 RxErr: 0
   0.011622 1  ErrorFrame	Flags = 0xfffe	CodeExt = 0x31d9	Code = 0xc7	ID = 0x580	DLC = 8	Position = 99	Length = 919968	Data = 0x80  0  0  0  0  0  0  0
   0.012676 CAN 1 Status:chip status error active  - TxErr: 64 RxErr: 0
   0.012678 1  ErrorFrame	Flags = 0xfffe	CodeExt = 0x31d9	Code = 0xc7	ID = 0x580	DLC = 8	Position = 99	Length = 919968	Data = 0x80  0  0  0  0  0  0  0
   0.013732 CAN 1 Status:chip status error active  - TxErr: 72 RxErr: 0
   0.013734 1  ErrorFrame	Flags = 0xfffe	CodeExt = 0x31d9	Code = 0xc7	ID = 0x580	DLC = 8	Position = 99	Length = 919968	Data = 0x80  0  0  0  0  0  0  0
   0.014788 CAN 1 Status:chip status error active  - TxErr: 80 RxErr: 0
   0.014790 1  ErrorFrame	Flags = 0xfffe	CodeExt = 0x31d9	Code = 0xc7	ID = 0x580	DLC = 8	Position = 99	Length = 919968	Data = 0x80  0  0  0  0  0  0  0
   0.015844 CAN 1 Status:chip status error active  - TxErr: 88 RxErr: 0
   0.015846 1  ErrorFrame	Flags = 0xfffe	CodeExt = 0x31d9	Code = 0xc7	ID = 0x580	DLC = 8	Position = 99	Length = 919968	Data = 0x80  0  0  0  0  0  0  0
   0.016900 CAN 1 Status:chip status warning level - TxErr: 96 RxErr: 0
   0.016902 1  ErrorFrame	Flags = 0xfffe	CodeExt = 0x31d9	Code = 0xc7	ID = 0x580	DLC = 8	Position = 99	Length = 919968	Data = 0x80  0  0  0  0  0  0  0
   0.018020 CAN 1 Status:chip status error active  - TxErr: 95 RxErr: 0
   0.018022 1  580             Tx   d 8 80 00 00 00 00 00 00 00  Length = 983987 BitCount = 126 ID = 1408
   0.019028 CAN 1 Status:chip status error active  - TxErr: 94 RxErr: 0
   0.019030 1  580             Tx   d 8 80 00 00 00 00 00 00 00  Length = 983987 BitCount = 126 ID = 1408
   0.020036 CAN 1 Status:chip status error active  - TxErr: 93 RxErr: 0
   0.020038 1  580             Tx   d 8 80 00 00 00 00 00 00 00  Length = 983987 BitCount = 126 ID = 1408
   0.021044 CAN 1 Status:chip status error active  - TxErr: 92 RxErr: 0
   0.021046 1  580             Tx   d 8 80 00 00 00 00 00 00 00  Length = 983987 BitCount = 126 ID = 1408
   0.022052 CAN 1 Status:chip status error active  - TxErr: 91 RxErr: 0
   0.022054 1  580             Tx   d 8 80 00 00 00 00 00 00 00  Length = 983987 BitCount = 126 ID = 1408
   0.023060 CAN 1 Status:chip status error active  - TxErr: 90 RxErr: 0
   0.023062 1  580             Tx   d 8 80 00 00 00 00 00 00 00  Length = 983987 BitCount = 126 ID = 1408
   0.024068 CAN 1 Status:chip status error active  - TxErr: 89 RxErr: 0
   0.024070 1  580             Tx   d 8 80 00 00 00 00 00 00 00  Length = 983987 BitCount = 126 ID = 1408
   0.025076 CAN 1 Status:chip status error active  - TxErr: 88 RxErr: 0
   0.025078 1  580             Tx   d 8 80 00 00 00 00 00 00 00  Length = 983987 BitCount = 126 ID = 1408
   0.026084 CAN 1 Status:chip status error active  - TxErr: 87 RxErr: 0
   0.026086 1  580             Tx   d 8 80 00 00 00 00 00 00 00  Length = 983987 BitCount = 126 ID = 1408
   0.027092 CAN 1 Status:chip status error active  - TxErr: 86 RxErr: 0
   0.027094 1  580             Tx   d 8 80 00 00 00 00 00 00 00  Length = 983987 BitCount = 126 ID = 1408
   0.028100 CAN 1 Status:chip status error active  - TxErr: 85 RxErr: 0
   0.028102 1  580             Tx   d 8 80 00 00 00 00 00 00 00  Length = 983987 BitCount = 126 ID = 1408
   0.028700 CAN 1 Status:chip status error active  - TxErr: 84 RxErr: 0
   0.028702 1  554             Tx   d 3 54 01 01  Length = 575987 BitCount = 75 ID = 1364
   0.029292 CAN 1 Status:chip status error active  - TxErr: 83 RxErr: 0
   0.029294 1  509             Tx   d 3 09 01 01  Length = 567987 BitCount = 74 ID = 1289
   0.029892 CAN 1 Status:chip status error active  - TxErr: 82 RxErr: 0
   0.029894 1  51E             Tx   d 3 1E 01 01  Length = 575987 BitCount = 75 ID = 1310
   0.030884 CAN 1 Status:chip status error active  - TxErr: 81 RxErr: 0
   0.030886 1  216             Tx   d 8 00 00 00 00 00 00 00 00  Length = 967987 BitCount = 124 ID = 534
   0.031476 CAN 1 Status:chip status error active  - TxErr: 80 RxErr: 0
   0.031478 1  567             Tx   d 3 67 01 01  Length = 567987 BitCount = 74 ID = 1383
   0.032084 CAN 1 Status:chip status error active  - TxErr: 79 RxErr: 0
   0.032086 1  53B             Tx   d 3 3B 01 01  Length = 583987 BitCount = 76 ID = 1339
   0.033076 CAN 1 Status:chip status error active  - TxErr: 78 RxErr: 0
   0.033078 1  386             Tx   d 8 00 00 00 00 00 00 00 00  Length = 967987 BitCount = 124 ID = 902
   0.034068 CAN 1 Status:chip status error active  - TxErr: 77 RxErr: 0
   0.034070 1  167             Tx   d 8 01 00 00 00 00 00 00 00  Length = 967987 BitCount = 124 ID = 359
   0.035068 CAN 1 Status:chip status error active  - TxErr: 76 RxErr: 0
   0.035070 1  3E2             Tx   d 8 00 00 00 00 80 00 00 00  Length = 975987 BitCount = 125 ID = 994
   0.036052 CAN 1 Status:chip status error active  - TxErr: 75 RxErr: 0
   0.036054 1  331             Tx   d 8 40 00 00 00 02 00 00 00  Length = 959987 BitCount = 123 ID = 817
   0.037044 CAN 1 Status:chip status error active  - TxErr: 74 RxErr: 0
   0.037046 1  42B             Tx   d 8 00 00 00 00 00 00 00 00  Length = 967987 BitCount = 124 ID = 1067
   0.038012 CAN 1 Status:chip status error active  - TxErr: 73 RxErr: 0
   0.038014 1  36A             Tx   d 8 FF 80 FF 80 00 00 00 00  Length = 943987 BitCount = 121 ID = 874
   0.038270 1  ErrorFrame	Flags = 0xfffe	CodeExt = 0x300a	Code = 0xc0	ID = 0x2fd	DLC = 8	Position = 26	Length = 231968	Data = 0xff  0x80  0xff  0x80  0  0  0  0
   0.038270 CAN 1 Status:chip status error active  - TxErr: 81 RxErr: 0
   0.039388 CAN 1 Status:chip status error active  - TxErr: 80 RxErr: 0
   0.039390 1  2FD             Tx   d 8 00 00 00 00 00 00 C0 00  Length = 975987 BitCount = 125 ID = 765
   0.040388 CAN 1 Status:chip status error active  - TxErr: 79 RxErr: 0
   0.040390 1  42E             Tx   d 8 00 00 00 C0 00 03 00 00  Length = 975987 BitCount = 125 ID = 1070
   0.041396 CAN 1 Status:chip status error active  - TxErr: 78 RxErr: 0
   0.041398 1  358             Tx   d 8 00 00 00 00 00 00 00 00  Length = 983987 BitCount = 126 ID = 856
   0.042372 CAN 1 Status:chip status error active  - TxErr: 77 RxErr: 0
   0.042374 1  3C4             Tx   d 8 02 00 60 0F 00 00 0E 44  Length = 951987 BitCount = 122 ID = 964
   0.043372 CAN 1 Status:chip status error active  - TxErr: 76 RxErr: 0
   0.043374 1  305             Tx   d 8 00 00 00 00 00 00 00 00  Length = 975987 BitCount = 125 ID = 773
   0.044292 CAN 1 Status:chip status error active  - TxErr: 84 RxErr: 0
   0.044294 1  ErrorFrame	Flags = 0xfffe	CodeExt = 0x31d9	Code = 0xc7	ID = 0x3eb	DLC = 8	Position = 99	Length = 895968	Data = 0  0x4  0x44  0  0  0  0  0
   0.045388 CAN 1 Status:chip status error active  - TxErr: 83 RxErr: 0
   0.045390 1  3EB             Tx   d 8 00 04 44 00 00 00 00 00  Length = 959987 BitCount = 123 ID = 1003
   0.046396 CAN 1 Status:chip status error active  - TxErr: 82 RxErr: 0
   0.046397 1  125             Tx   d 8 00 00 00 00 00 00 00 00  Length = 983771 BitCount = 126 ID = 293
   0.047389 1  326             Rx   d 8 00 00 00 00 00 00 00 00  Length = 967988 BitCount = 125 ID = 806
   0.048325 1  355             Rx   d 8 A2 00 AA A0 2A AA 08 00  Length = 903988 BitCount = 117 ID = 853
   0.049309 1  356             Rx   d 8 00 3C 00 00 00 00 00 00  Length = 951988 BitCount = 123 ID = 854
   0.049309    envDrvSetTemp := ""
   0.049309    envPsgSetTemp := ""
   0.050293 1  35E             Rx   d 8 00 00 00 00 00 FF 00 00  Length = 951773 BitCount = 123 ID = 862
   0.051293 1  3E7             Rx   d 8 00 00 00 00 80 00 00 00  Length = 967988 BitCount = 125 ID = 999
   0.052285 1  41A             Rx   d 8 FE 00 00 00 00 00 00 00  Length = 959988 BitCount = 124 ID = 1050
   0.053285 1  124             Rx   d 8 00 00 00 00 00 00 00 00  Length = 967988 BitCount = 125 ID = 292
   0.054269 1  36D             Rx   d 8 80 00 00 00 00 00 00 00  Length = 951773 BitCount = 123 ID = 877
   0.055229 1  373             Rx   d 8 FF 7F BF DF EF F0 00 00  Length = 927988 BitCount = 120 ID = 883
   0.056181 1  374             Rx   d 8 FF 7F BF DF EF F7 F8 A0  Length = 919988 BitCount = 119 ID = 884
   0.057179 CAN 1 Status:chip status error active  - TxErr: 81 RxErr: 0
   0.057181 1  42C             Tx   d 8 00 00 14 00 00 00 00 00  Length = 967987 BitCount = 124 ID = 1068
   0.058179 CAN 1 Status:chip status error active  - TxErr: 80 RxErr: 0
   0.058181 1  3B1             Tx   d 8 00 00 00 00 00 00 00 00  Length = 975987 BitCount = 125 ID = 945
   0.059155 CAN 1 Status:chip status error active  - TxErr: 79 RxErr: 0
   0.059157 1  437             Tx   d 8 10 08 04 00 00 00 00 00  Length = 951987 BitCount = 122 ID = 1079
   0.060155 CAN 1 Status:chip status error active  - TxErr: 78 RxErr: 0
   0.060157 1  349             Tx   d 8 00 00 00 00 00 00 00 00  Length = 975987 BitCount = 125 ID = 841
   0.061147 CAN 1 Status:chip status error active  - TxErr: 77 RxErr: 0
   0.061149 1  3D5             Tx   d 8 04 00 00 00 00 00 00 00  Length = 967987 BitCount = 124 ID = 981
   0.062115 CAN 1 Status:chip status error active  - TxErr: 76 RxErr: 0
   0.062117 1  42A             Tx   d 8 D8 50 78 E0 00 00 00 00  Length = 943987 BitCount = 121 ID = 1066
   0.063107 CAN 1 Status:chip status error active  - TxErr: 75 RxErr: 0
   0.063109 1  178             Tx   d 8 00 00 00 00 0C 00 00 00  Length = 967987 BitCount = 124 ID = 376
   0.064099 CAN 1 Status:chip status error active  - TxErr: 74 RxErr: 0
   0.064101 1  83              Tx   d 8 00 00 03 FE FF 90 FF FE  Length = 967987 BitCount = 124 ID = 131
   0.065107 CAN 1 Status:chip status error active  - TxErr: 73 RxErr: 0
   0.065109 1  3BE             Tx   d 8 00 00 00 00 00 00 00 00  Length = 983987 BitCount = 126 ID = 958
   0.066115 CAN 1 Status:chip status error active  - TxErr: 72 RxErr: 0
   0.066117 1  344             Tx   d 8 00 00 00 00 00 00 00 00  Length = 983987 BitCount = 126 ID = 836
   0.067107 CAN 1 Status:chip status error active  - TxErr: 71 RxErr: 0
   0.067109 1  3DE             Tx   d 8 00 00 00 00 80 00 00 00  Length = 967987 BitCount = 124 ID = 990
   0.068115 CAN 1 Status:chip status error active  - TxErr: 70 RxErr: 0
   0.068117 1  304             Tx   d 8 00 00 00 00 00 00 00 00  Length = 983987 BitCount = 126 ID = 772
   0.069107 CAN 1 Status:chip status error active  - TxErr: 69 RxErr: 0
   0.069109 1  33B             Tx   d 8 00 00 00 00 00 00 00 00  Length = 967987 BitCount = 124 ID = 827
   0.070115 CAN 1 Status:chip status error active  - TxErr: 68 RxErr: 0
   0.070117 1  33C             Tx   d 8 00 00 00 00 00 00 00 00  Length = 983987 BitCount = 126 ID = 828
   0.071123 CAN 1 Status:chip status error active  - TxErr: 67 RxErr: 0
   0.071125 1  3E0             Tx   d 8 00 00 00 00 80 00 00 00  Length = 983987 BitCount = 126 ID = 992
   0.072131 CAN 1 Status:chip status error active  - TxErr: 66 RxErr: 0
   0.072133 1  40A             Tx   d 8 00 00 00 00 00 00 00 00  Length = 983987 BitCount = 126 ID = 1034
   0.073107 CAN 1 Status:chip status error active  - TxErr: 65 RxErr: 0
   0.073109 1  433             Tx   d 8 FC 00 00 02 00 00 00 00  Length = 951987 BitCount = 122 ID = 1075
   0.074091 CAN 1 Status:chip status error active  - TxErr: 64 RxErr: 0
   0.074093 1  359             Tx   d 8 00 3C 00 00 00 00 00 00  Length = 959987 BitCount = 123 ID = 857
   0.075059 CAN 1 Status:chip status error active  - TxErr: 63 RxErr: 0
   0.075061 1  3B3             Tx   d 8 10 80 C0 0C E0 02 00 00  Length = 943987 BitCount = 121 ID = 947
   0.075061    envGetVehState := 1
   0.076035 CAN 1 Status:chip status error active  - TxErr: 62 RxErr: 0
   0.076037 1  31C             Tx   d 8 00 00 00 7F 00 00 88 14  Length = 951987 BitCount = 122 ID = 796
   0.077027 CAN 1 Status:chip status error active  - TxErr: 61 RxErr: 0
   0.077029 1  313             Tx   d 8 00 00 00 00 00 00 00 00  Length = 967987 BitCount = 124 ID = 787
   0.078003 CAN 1 Status:chip status error active  - TxErr: 60 RxErr: 0
   0.078005 1  347             Tx   d 8 00 00 03 00 03 00 03 00  Length = 951987 BitCount = 122 ID = 839
   0.079011 CAN 1 Status:chip status error active  - TxErr: 59 RxErr: 0
   0.079013 1  415             Tx   d 8 00 00 00 00 00 00 00 00  Length = 983987 BitCount = 126 ID = 1045
   0.079979 CAN 1 Status:chip status error active  - TxErr: 58 RxErr: 0
   0.079981 1  3BC             Tx   d 8 E0 00 00 96 00 00 38 00  Length = 943987 BitCount = 121 ID = 956
   0.080971 CAN 1 Status:chip status error active  - TxErr: 57 RxErr: 0
   0.080973 1  443             Tx   d 8 00 00 00 00 00 00 00 00  Length = 967987 BitCount = 124 ID = 1091
   0.081971 CAN 1 Status:chip status error active  - TxErr: 56 RxErr: 0
   0.081973 1  584             Tx   d 8 84 00 00 00 00 00 00 00  Length = 975987 BitCount = 125 ID = 1412
   0.082955 CAN 1 Status:chip status error active  - TxErr: 55 RxErr: 0
   0.082957 1  585             Tx   d 8 85 00 00 00 00 00 00 00  Length = 959987 BitCount = 123 ID = 1413
   0.083907 CAN 1 Status:chip status error active  - TxErr: 54 RxErr: 0
   0.083909 1  3BC             Tx   d 8 EC 00 1C 96 00 00 3F 00  Length = 927987 BitCount = 119 ID = 956
   0.084867 CAN 1 Status:chip status error active  - TxErr: 53 RxErr: 0
   0.084869 1  42E             Tx   d 8 05 00 00 E0 00 0F 00 31  Length = 935987 BitCount = 120 ID = 1070
   0.085827 CAN 1 Status:chip status error active  - TxErr: 52 RxErr: 0
   0.085829 1  42C             Tx   d 8 05 51 74 00 00 38 00 40  Length = 935987 BitCount = 120 ID = 1068
   0.086795 CAN 1 Status:chip status error active  - TxErr: 51 RxErr: 0
   0.086797 1  42A             Tx   d 8 D8 50 78 E0 00 00 00 00  Length = 943987 BitCount = 121 ID = 1066
   0.087779 CAN 1 Status:chip status error active  - TxErr: 50 RxErr: 0
   0.087781 1  58B             Tx   d 8 8B 00 00 00 00 00 00 00  Length = 959987 BitCount = 123 ID = 1419
   0.102131 CAN 1 Status:chip status error active  - TxErr: 49 RxErr: 0
   0.102133 1  216             Tx   d 8 00 00 00 00 00 00 00 00  Length = 967987 BitCount = 124 ID = 534
   0.103091 CAN 1 Status:chip status error active  - TxErr: 48 RxErr: 0
   0.103093 1  42E             Tx   d 8 05 00 00 E0 00 0F 00 31  Length = 935987 BitCount = 120 ID = 1070
   0.104059 CAN 1 Status:chip status error active  - TxErr: 47 RxErr: 0
   0.104061 1  42A             Tx   d 8 D8 50 78 E0 00 00 00 00  Length = 943987 BitCount = 121 ID = 1066
   0.105019 CAN 1 Status:chip status error active  - TxErr: 46 RxErr: 0
   0.105021 1  42C             Tx   d 8 05 51 74 00 00 38 00 40  Length = 935987 BitCount = 120 ID = 1068
   0.106011 CAN 1 Status:chip status error active  - TxErr: 45 RxErr: 0
   0.106013 1  332             Tx   d 8 00 00 00 00 00 00 00 00  Length = 967987 BitCount = 124 ID = 818
   0.106963 CAN 1 Status:chip status error active  - TxErr: 44 RxErr: 0
   0.106965 1  3BC             Tx   d 8 EC 00 1C 96 00 00 3F 00  Length = 927987 BitCount = 119 ID = 956
   0.107955 CAN 1 Status:chip status error active  - TxErr: 43 RxErr: 0
   0.107957 1  3BE             Tx   d 8 00 00 00 CC 00 00 00 21  Length = 967987 BitCount = 124 ID = 958
   0.108939 CAN 1 Status:chip status error active  - TxErr: 42 RxErr: 0
   0.108941 1  83              Tx   d 8 00 00 03 FE FF 91 FF FE  Length = 959987 BitCount = 123 ID = 131
   0.109931 CAN 1 Status:chip status error active  - TxErr: 41 RxErr: 0
   0.109933 1  33A             Tx   d 8 00 00 00 00 00 00 00 00  Length = 967987 BitCount = 124 ID = 826
   0.110907 CAN 1 Status:chip status error active  - TxErr: 40 RxErr: 0
   0.110909 1  347             Tx   d 8 00 00 03 00 03 00 03 00  Length = 951987 BitCount = 122 ID = 839
   0.111915 CAN 1 Status:chip status error active  - TxErr: 39 RxErr: 0
   0.111917 1  415             Tx   d 8 00 00 00 00 00 00 00 00  Length = 983987 BitCount = 126 ID = 1045
   0.112915 CAN 1 Status:chip status error active  - TxErr: 38 RxErr: 0
   0.112917 1  333             Tx   d 8 00 00 00 00 00 00 00 00  Length = 975987 BitCount = 125 ID = 819
   0.113923 CAN 1 Status:chip status error active  - TxErr: 37 RxErr: 0
   0.113925 1  3E1             Tx   d 8 00 00 00 00 00 80 00 00  Length = 983987 BitCount = 126 ID = 993
   0.114523 CAN 1 Status:chip status error active  - TxErr: 36 RxErr: 0
   0.114525 1  554             Tx   d 3 67 02 01  Length = 575987 BitCount = 75 ID = 1364
   0.115123 CAN 1 Status:chip status error active  - TxErr: 35 RxErr: 0
   0.115125 1  509             Tx   d 3 1E 02 01  Length = 575987 BitCount = 75 ID = 1289
   0.115715 CAN 1 Status:chip status error active  - TxErr: 34 RxErr: 0
   0.115717 1  51E             Tx   d 3 3B 02 01  Length = 567987 BitCount = 74 ID = 1310
   0.125668 1  356             Rx   d 8 00 3C 20 20 20 20 00 00  Length = 927773 BitCount = 120 ID = 854
   0.125668    envDrvSetTemp := "    "
   0.125668    envPsgSetTemp := "    "
   0.135675 1  326             Rx   d 8 01 90 03 FF 01 90 00 C8  Length = 935773 BitCount = 121 ID = 806
   0.136603 1  355             Rx   d 8 A2 07 A2 A0 2A AA 08 E0  Length = 895777 BitCount = 116 ID = 853
   0.137587 1  35E             Rx   d 8 00 C0 3E 00 72 00 00 00  Length = 951773 BitCount = 123 ID = 862
   0.138595 1  3E7             Rx   d 8 00 00 00 00 00 00 00 00  Length = 975773 BitCount = 126 ID = 999
   0.139579 1  124             Rx   d 8 02 02 00 00 00 00 00 00  Length = 951773 BitCount = 123 ID = 292
   0.151953 CAN 1 Status:chip status error active  - TxErr: 33 RxErr: 0
   0.151955 1  42C             Tx   d 8 05 51 74 00 00 38 00 40  Length = 935987 BitCount = 120 ID = 1068
   0.152913 CAN 1 Status:chip status error active  - TxErr: 32 RxErr: 0
   0.152915 1  42E             Tx   d 8 05 00 00 E0 00 0F 00 31  Length = 935987 BitCount = 120 ID = 1070
   0.153865 CAN 1 Status:chip status error active  - TxErr: 31 RxErr: 0
   0.153867 1  3BC             Tx   d 8 EC 00 1C 96 00 00 3F 00  Length = 927987 BitCount = 119 ID = 956
   0.154833 CAN 1 Status:chip status error active  - TxErr: 30 RxErr: 0
   0.154835 1  42A             Tx   d 8 D8 50 78 E0 00 00 00 00  Length = 943987 BitCount = 121 ID = 1066
   0.202025 CAN 1 Status:chip status error active  - TxErr: 29 RxErr: 0
   0.202027 1  42A             Tx   d 8 D8 50 78 E0 00 00 00 00  Length = 943987 BitCount = 121 ID = 1066
   0.202977 CAN 1 Status:chip status error active  - TxErr: 28 RxErr: 0
   0.202979 1  3BC             Tx   d 8 EC 00 1C 96 00 00 3F 00  Length = 927987 BitCount = 119 ID = 956
   0.203937 CAN 1 Status:chip status error active  - TxErr: 27 RxErr: 0
   0.203939 1  42E             Tx   d 8 05 00 00 E0 00 0F 00 31  Length = 935987 BitCount = 120 ID = 1070
   0.204921 CAN 1 Status:chip status error active  - TxErr: 26 RxErr: 0
   0.204923 1  83              Tx   d 8 00 00 03 FE FF 91 FF FE  Length = 959987 BitCount = 123 ID = 131
   0.205881 CAN 1 Status:chip status error active  - TxErr: 25 RxErr: 0
   0.205883 1  42C             Tx   d 8 05 51 74 00 00 38 00 40  Length = 935987 BitCount = 120 ID = 1068
   0.206873 CAN 1 Status:chip status error active  - TxErr: 24 RxErr: 0
   0.206875 1  216             Tx   d 8 00 00 00 00 00 00 00 00  Length = 967987 BitCount = 124 ID = 534
   0.207817 CAN 1 Status:chip status error active  - TxErr: 23 RxErr: 0
   0.207819 1  3C4             Tx   d 8 56 00 E8 7F 00 00 9F D7  Length = 919987 BitCount = 118 ID = 964
   0.208817 CAN 1 Status:chip status error active  - TxErr: 22 RxErr: 0
   0.208819 1  333             Tx   d 8 00 00 00 00 00 00 00 00  Length = 975987 BitCount = 125 ID = 819
   0.209817 CAN 1 Status:chip status error active  - TxErr: 21 RxErr: 0
   0.209819 1  33F             Tx   d 8 00 00 00 00 00 00 00 00  Length = 975987 BitCount = 125 ID = 831
   0.210809 CAN 1 Status:chip status error active  - TxErr: 20 RxErr: 0
   0.210811 1  3BE             Tx   d 8 00 00 00 CC 00 00 00 21  Length = 967987 BitCount = 124 ID = 958
   0.211801 CAN 1 Status:chip status error active  - TxErr: 19 RxErr: 0
   0.211803 1  332             Tx   d 8 00 00 00 00 00 00 00 00  Length = 967987 BitCount = 124 ID = 818
   0.212793 CAN 1 Status:chip status error active  - TxErr: 18 RxErr: 0
   0.212795 1  33A             Tx   d 8 00 00 00 00 00 00 00 00  Length = 967987 BitCount = 124 ID = 826
   0.213801 CAN 1 Status:chip status error active  - TxErr: 17 RxErr: 0
   0.213803 1  415             Tx   d 8 00 00 00 00 00 00 00 00  Length = 983987 BitCount = 126 ID = 1045
   0.214777 CAN 1 Status:chip status error active  - TxErr: 16 RxErr: 0
   0.214779 1  347             Tx   d 8 00 00 03 00 03 00 03 00  Length = 951987 BitCount = 122 ID = 839
   0.216753 CAN 1 Status:chip status error active  - TxErr: 15 RxErr: 0
   0.216755 1  53B             Tx   d 3 54 02 01  Length = 575987 BitCount = 75 ID = 1339
   0.235666 1  326             Rx   d 8 01 90 03 FF 01 90 00 C8  Length = 935773 BitCount = 121 ID = 806
   0.236648 CAN 1 Status:chip status error active  - TxErr: 14 RxErr: 0
   0.236650 1  59E             Tx   d 8 9E 00 00 00 00 00 00 00  Length = 951987 BitCount = 122 ID = 1438
   0.252000 CAN 1 Status:chip status error active  - TxErr: 13 RxErr: 0
   0.252002 1  42E             Tx   d 8 05 00 00 E0 00 0F 00 31  Length = 935987 BitCount = 120 ID = 1070
   0.252952 CAN 1 Status:chip status error active  - TxErr: 12 RxErr: 0
   0.252954 1  3BC             Tx   d 8 EC 00 1C 96 00 00 3F 00  Length = 927987 BitCount = 119 ID = 956
   0.253936 CAN 1 Status:chip status error active  - TxErr: 11 RxErr: 0
   0.253938 1  42B             Tx   d 8 00 88 00 00 00 00 00 00  Length = 959987 BitCount = 123 ID = 1067
   0.254904 CAN 1 Status:chip status error active  - TxErr: 10 RxErr: 0
   0.254906 1  42A             Tx   d 8 D8 50 78 E0 00 00 00 00  Length = 943987 BitCount = 121 ID = 1066
   0.255864 CAN 1 Status:chip status error active  - TxErr: 9 RxErr: 0
   0.255866 1  42C             Tx   d 8 05 51 74 00 00 38 00 40  Length = 935987 BitCount = 120 ID = 1068
   0.298024 CAN 1 Status:chip status error active  - TxErr: 8 RxErr: 0
   0.298026 1  5A6             Tx   d 8 A6 00 00 00 00 00 00 00  Length = 951987 BitCount = 122 ID = 1446
   0.302104 CAN 1 Status:chip status error active  - TxErr: 7 RxErr: 0
   0.302106 1  347             Tx   d 8 00 00 03 00 03 00 03 00  Length = 951987 BitCount = 122 ID = 839
   0.303064 CAN 1 Status:chip status error active  - TxErr: 6 RxErr: 0
   0.303066 1  42E             Tx   d 8 05 00 00 E0 00 0F 00 31  Length = 935987 BitCount = 120 ID = 1070
   0.304032 CAN 1 Status:chip status error active  - TxErr: 5 RxErr: 0
   0.304034 1  42A             Tx   d 8 D8 50 78 E0 00 00 00 00  Length = 943987 BitCount = 121 ID = 1066
   0.304992 CAN 1 Status:chip status error active  - TxErr: 4 RxErr: 0
   0.304994 1  42C             Tx   d 8 05 51 74 00 00 38 00 40  Length = 935987 BitCount = 120 ID = 1068
   0.305984 CAN 1 Status:chip status error active  - TxErr: 3 RxErr: 0
   0.305986 1  3BE             Tx   d 8 00 00 00 CC 00 00 00 21  Length = 967987 BitCount = 124 ID = 958
   0.306992 CAN 1 Status:chip status error active  - TxErr: 2 RxErr: 0
   0.306994 1  415             Tx   d 8 00 00 00 00 00 00 00 00  Length = 983987 BitCount = 126 ID = 1045
   0.307976 CAN 1 Status:chip status error active  - TxErr: 1 RxErr: 0
   0.307978 1  83              Tx   d 8 00 00 03 FE FF 91 FF FE  Length = 959987 BitCount = 123 ID = 131
   0.308928 CAN 1 Status:chip status error active
   0.308930 1  3BC             Tx   d 8 EC 00 1C 96 00 00 3F 00  Length = 927987 BitCount = 119 ID = 956
   0.309930 1  333             Tx   d 8 00 00 00 00 00 00 00 00  Length = 975987 BitCount = 125 ID = 819
   0.310922 1  33A             Tx   d 8 00 00 00 00 00 00 00 00  Length = 967987 BitCount = 124 ID = 826
   0.311914 1  332             Tx   d 8 00 00 00 00 00 00 00 00  Length = 967987 BitCount = 124 ID = 818
   0.312906 1  216             Tx   d 8 00 00 00 00 00 00 00 00  Length = 967987 BitCount = 124 ID = 534
   0.313882 1  5A7             Tx   d 8 A7 00 00 00 00 00 00 00  Length = 951987 BitCount = 122 ID = 1447
   0.317626 1  554             Tx   d 3 67 02 01  Length = 575987 BitCount = 75 ID = 1364
   0.335664 1  326             Rx   d 8 01 90 03 FF 01 90 00 C8  Length = 935773 BitCount = 121 ID = 806
   0.351904 1  42E             Tx   d 8 05 00 00 E0 00 0F 00 31  Length = 935987 BitCount = 120 ID = 1070
   0.352856 1  3BC             Tx   d 8 EC 00 1C 96 00 00 3F 00  Length = 927987 BitCount = 119 ID = 956
   0.353824 1  42A             Tx   d 8 D8 50 78 E0 00 00 00 00  Length = 943987 BitCount = 121 ID = 1066
   0.354784 1  42C             Tx   d 8 05 51 74 00 00 38 00 40  Length = 935987 BitCount = 120 ID = 1068
   0.401920 1  42C             Tx   d 8 05 51 74 00 00 38 00 40  Length = 935987 BitCount = 120 ID = 1068
   0.402888 1  42A             Tx   d 8 D8 50 78 E0 00 00 00 00  Length = 943987 BitCount = 121 ID = 1066
   0.403848 1  42E             Tx   d 8 05 00 00 E0 00 0F 00 31  Length = 935987 BitCount = 120 ID = 1070
   0.404800 1  3BC             Tx   d 8 EC 00 1C 96 00 00 3F 00  Length = 927987 BitCount = 119 ID = 956
   0.405792 1  332             Tx   d 8 00 00 00 00 00 00 00 00  Length = 967987 BitCount = 124 ID = 818
   0.406768 1  347             Tx   d 8 00 00 03 00 03 00 03 00  Length = 951987 BitCount = 122 ID = 839
   0.407776 1  415             Tx   d 8 00 00 00 00 00 00 00 00  Length = 983987 BitCount = 126 ID = 1045
   0.408720 1  3C4             Tx   d 8 56 00 E8 7F 00 00 9F D7  Length = 919987 BitCount = 118 ID = 964
   0.409712 1  216             Tx   d 8 00 00 00 00 00 00 00 00  Length = 967987 BitCount = 124 ID = 534
   0.410696 1  83              Tx   d 8 00 00 03 FE FF 91 FF FE  Length = 959987 BitCount = 123 ID = 131
   0.411688 1  33A             Tx   d 8 00 00 00 00 00 00 00 00  Length = 967987 BitCount = 124 ID = 826
   0.412688 1  333             Tx   d 8 00 00 00 00 00 00 00 00  Length = 975987 BitCount = 125 ID = 819
   0.413680 1  3BE             Tx   d 8 00 00 00 CC 00 00 00 21  Length = 967987 BitCount = 124 ID = 958
   0.418600 1  567             Tx   d 3 09 02 01  Length = 567987 BitCount = 74 ID = 1383
   0.435670 1  326             Rx   d 8 01 90 03 FF 01 90 00 C8  Length = 935773 BitCount = 121 ID = 806
   0.451862 1  42C             Tx   d 8 05 51 74 00 00 38 00 40  Length = 935987 BitCount = 120 ID = 1068
   0.452822 1  42E             Tx   d 8 05 00 00 E0 00 0F 00 31  Length = 935987 BitCount = 120 ID = 1070
   0.453790 1  42A             Tx   d 8 D8 50 78 E0 00 00 00 00  Length = 943987 BitCount = 121 ID = 1066
   0.454742 1  3BC             Tx   d 8 EC 00 1C 96 00 00 3F 00  Length = 927987 BitCount = 119 ID = 956
   0.501942 1  3BC             Tx   d 8 EC 00 1C 96 00 00 3F 00  Length = 927987 BitCount = 119 ID = 956
   0.502902 1  42C             Tx   d 8 05 51 74 00 00 38 00 40  Length = 935987 BitCount = 120 ID = 1068
   0.503862 1  42E             Tx   d 8 05 00 00 E0 00 0F 00 31  Length = 935987 BitCount = 120 ID = 1070
   0.504830 1  42A             Tx   d 8 D8 50 78 E0 00 00 00 00  Length = 943987 BitCount = 121 ID = 1066
   0.505806 1  347             Tx   d 8 00 00 03 00 03 00 03 00  Length = 951987 BitCount = 122 ID = 839
   0.506806 1  333             Tx   d 8 00 00 00 00 00 00 00 00  Length = 975987 BitCount = 125 ID = 819
   0.507798 1  3BE             Tx   d 8 00 00 00 CC 00 00 00 21  Length = 967987 BitCount = 124 ID = 958
   0.508790 1  332             Tx   d 8 00 00 00 00 00 00 00 00  Length = 967987 BitCount = 124 ID = 818
   0.509782 1  33A             Tx   d 8 00 00 00 00 00 00 00 00  Length = 967987 BitCount = 124 ID = 826
   0.510790 1  415             Tx   d 8 00 00 00 00 00 00 00 00  Length = 983987 BitCount = 126 ID = 1045
   0.511774 1  42B             Tx   d 8 00 88 00 00 00 00 00 00  Length = 959987 BitCount = 123 ID = 1067
   0.512758 1  83              Tx   d 8 00 00 03 FE FF 91 FF FE  Length = 959987 BitCount = 123 ID = 131
   0.513750 1  216             Tx   d 8 00 00 00 00 00 00 00 00  Length = 967987 BitCount = 124 ID = 534
   0.519542 1  509             Tx   d 3 1E 02 01  Length = 575987 BitCount = 75 ID = 1289
   0.535644 1  326             Rx   d 8 01 90 03 FF 01 90 00 C8  Length = 935773 BitCount = 121 ID = 806
   0.552044 1  3BC             Tx   d 8 EC 00 1C 96 00 00 3F 00  Length = 927987 BitCount = 119 ID = 956
   0.553004 1  42E             Tx   d 8 05 00 00 E0 00 0F 00 31  Length = 935987 BitCount = 120 ID = 1070
   0.553964 1  42C             Tx   d 8 05 51 74 00 00 38 00 40  Length = 935987 BitCount = 120 ID = 1068
   0.554932 1  42A             Tx   d 8 D8 50 78 E0 00 00 00 00  Length = 943987 BitCount = 121 ID = 1066
   0.601988 1  42A             Tx   d 8 D8 50 78 E0 00 00 00 00  Length = 943987 BitCount = 121 ID = 1066
   0.602940 1  3BC             Tx   d 8 EC 00 1C 96 00 00 3F 00  Length = 927987 BitCount = 119 ID = 956
   0.603900 1  42E             Tx   d 8 05 00 00 E0 00 0F 00 31  Length = 935987 BitCount = 120 ID = 1070
   0.604860 1  42C             Tx   d 8 05 51 74 00 00 38 00 40  Length = 935987 BitCount = 120 ID = 1068
   0.605844 1  83              Tx   d 8 00 00 03 FE FF 91 FF FE  Length = 959987 BitCount = 123 ID = 131
   0.606836 1  216             Tx   d 8 00 00 00 00 00 00 00 00  Length = 967987 BitCount = 124 ID = 534
   0.607812 1  347             Tx   d 8 00 00 03 00 03 00 03 00  Length = 951987 BitCount = 122 ID = 839
   0.608812 1  333             Tx   d 8 00 00 00 00 00 00 00 00  Length = 975987 BitCount = 125 ID = 819
   0.609804 1  332             Tx   d 8 00 00 00 00 00 00 00 00  Length = 967987 BitCount = 124 ID = 818
   0.610796 1  3BE             Tx   d 8 00 00 00 CC 00 00 00 21  Length = 967987 BitCount = 124 ID = 958
   0.611804 1  415             Tx   d 8 00 00 00 00 00 00 00 00  Length = 983987 BitCount = 126 ID = 1045
   0.612796 1  33A             Tx   d 8 00 00 00 00 00 00 00 00  Length = 967987 BitCount = 124 ID = 826
   0.613740 1  3C4             Tx   d 8 56 00 E8 7F 00 00 9F D7  Length = 919987 BitCount = 118 ID = 964
   0.620668 1  51E             Tx   d 3 3B 02 01  Length = 567987 BitCount = 74 ID = 1310
   0.635642 1  326             Rx   d 8 01 90 03 FF 01 90 00 C8  Length = 935773 BitCount = 121 ID = 806
   0.652074 1  42C             Tx   d 8 05 51 74 00 00 38 00 40  Length = 935987 BitCount = 120 ID = 1068
   0.653034 1  42E             Tx   d 8 05 00 00 E0 00 0F 00 31  Length = 935987 BitCount = 120 ID = 1070
   0.653986 1  3BC             Tx   d 8 EC 00 1C 96 00 00 3F 00  Length = 927987 BitCount = 119 ID = 956
   0.654954 1  42A             Tx   d 8 D8 50 78 E0 00 00 00 00  Length = 943987 BitCount = 121 ID = 1066
   0.689090 1  5D8             Tx   d 8 D8 00 00 00 00 00 00 00  Length = 967987 BitCount = 124 ID = 1496
   0.702010 1  42A             Tx   d 8 D8 50 78 E0 00 00 00 00  Length = 943987 BitCount = 121 ID = 1066
   0.702962 1  3BC             Tx   d 8 EC 00 1C 96 00 00 3F 00  Length = 927987 BitCount = 119 ID = 956
   0.703946 1  83              Tx   d 8 00 00 03 FE FF 91 FF FE  Length = 959987 BitCount = 123 ID = 131
   0.704906 1  42C             Tx   d 8 05 51 74 00 00 38 00 40  Length = 935987 BitCount = 120 ID = 1068
   0.705898 1  33A             Tx   d 8 00 00 00 00 00 00 00 00  Length = 967987 BitCount = 124 ID = 826
   0.706858 1  42E             Tx   d 8 05 00 00 E0 00 0F 00 31  Length = 935987 BitCount = 120 ID = 1070
   0.707866 1  415             Tx   d 8 00 00 00 00 00 00 00 00  Length = 983987 BitCount = 126 ID = 1045
   0.708842 1  347             Tx   d 8 00 00 03 00 03 00 03 00  Length = 951987 BitCount = 122 ID = 839
   0.709834 1  216             Tx   d 8 00 00 00 00 00 00 00 00  Length = 967987 BitCount = 124 ID = 534
   0.710826 1  3BE             Tx   d 8 00 00 00 CC 00 00 00 21  Length = 967987 BitCount = 124 ID = 958
   0.711818 1  332             Tx   d 8 00 00 00 00 00 00 00 00  Length = 967987 BitCount = 124 ID = 818
   0.712818 1  333             Tx   d 8 00 00 00 00 00 00 00 00  Length = 975987 BitCount = 125 ID = 819
   0.721626 1  53B             Tx   d 3 54 02 01  Length = 575987 BitCount = 75 ID = 1339
   0.735633 1  326             Rx   d 8 01 90 03 FF 01 90 00 C8  Length = 935773 BitCount = 121 ID = 806
   0.752001 1  42C             Tx   d 8 05 51 74 00 00 38 00 40  Length = 935987 BitCount = 120 ID = 1068
   0.752969 1  42A             Tx   d 8 D8 50 78 E0 00 00 00 00  Length = 943987 BitCount = 121 ID = 1066
   0.753921 1  3BC             Tx   d 8 EC 00 1C 96 00 00 3F 00  Length = 927987 BitCount = 119 ID = 956
   0.754881 1  42E             Tx   d 8 05 00 00 E0 00 0F 00 31  Length = 935987 BitCount = 120 ID = 1070
   0.755865 1  42B             Tx   d 8 00 88 00 00 00 00 00 00  Length = 959987 BitCount = 123 ID = 1067
   0.801993 1  42E             Tx   d 8 05 00 00 E0 00 0F 00 31  Length = 935987 BitCount = 120 ID = 1070
   0.802985 1  332             Tx   d 8 00 00 00 00 00 00 00 00  Length = 967987 BitCount = 124 ID = 818
   0.803945 1  42C             Tx   d 8 05 51 74 00 00 38 00 40  Length = 935987 BitCount = 120 ID = 1068
   0.804913 1  42A             Tx   d 8 D8 50 78 E0 00 00 00 00  Length = 943987 BitCount = 121 ID = 1066
   0.805913 1  333             Tx   d 8 00 00 00 00 00 00 00 00  Length = 975987 BitCount = 125 ID = 819
   0.806897 1  83              Tx   d 8 00 00 03 FE FF 91 FF FE  Length = 959987 BitCount = 123 ID = 131
   0.807841 1  3C4             Tx   d 8 56 00 E8 7F 00 00 9F D7  Length = 919987 BitCount = 118 ID = 964
   0.808793 1  3BC             Tx   d 8 EC 00 1C 96 00 00 3F 00  Length = 927987 BitCount = 119 ID = 956
   0.809785 1  3BE             Tx   d 8 00 00 00 CC 00 00 00 21  Length = 967987 BitCount = 124 ID = 958
   0.810777 1  33A             Tx   d 8 00 00 00 00 00 00 00 00  Length = 967987 BitCount = 124 ID = 826
   0.811769 1  216             Tx   d 8 00 00 00 00 00 00 00 00  Length = 967987 BitCount = 124 ID = 534
   0.812745 1  347             Tx   d 8 00 00 03 00 03 00 03 00  Length = 951987 BitCount = 122 ID = 839
   0.813753 1  415             Tx   d 8 00 00 00 00 00 00 00 00  Length = 983987 BitCount = 126 ID = 1045
   0.822585 1  554             Tx   d 3 67 02 01  Length = 575987 BitCount = 75 ID = 1364
   0.835625 1  326             Rx   d 8 01 90 03 FF 01 90 00 C8  Length = 935773 BitCount = 121 ID = 806
   0.851977 1  42E             Tx   d 8 05 00 00 E0 00 0F 00 31  Length = 935987 BitCount = 120 ID = 1070
   0.852937 1  42C             Tx   d 8 05 51 74 00 00 38 00 40  Length = 935987 BitCount = 120 ID = 1068
   0.853889 1  3BC             Tx   d 8 EC 00 1C 96 00 00 3F 00  Length = 927987 BitCount = 119 ID = 956
   0.854857 1  42A             Tx   d 8 D8 50 78 E0 00 00 00 00  Length = 943987 BitCount = 121 ID = 1066
   0.901977 1  42A             Tx   d 8 D8 50 78 E0 00 00 00 00  Length = 943987 BitCount = 121 ID = 1066
   0.902937 1  42C             Tx   d 8 05 51 74 00 00 38 00 40  Length = 935987 BitCount = 120 ID = 1068
   0.903889 1  3BC             Tx   d 8 EC 00 1C 96 00 00 3F 00  Length = 927987 BitCount = 119 ID = 956
   0.904865 1  347             Tx   d 8 00 00 03 00 03 00 03 00  Length = 951987 BitCount = 122 ID = 839
   0.905825 1  42E             Tx   d 8 05 00 00 E0 00 0F 00 31  Length = 935987 BitCount = 120 ID = 1070
   0.906833 1  415             Tx   d 8 00 00 00 00 00 00 00 00  Length = 983987 BitCount = 126 ID = 1045
   0.907825 1  332             Tx   d 8 00 00 00 00 00 00 00 00  Length = 967987 BitCount = 124 ID = 818
   0.908817 1  216             Tx   d 8 00 00 00 00 00 00 00 00  Length = 967987 BitCount = 124 ID = 534
   0.909801 1  83              Tx   d 8 00 00 03 FE FF 91 FF FE  Length = 959987 BitCount = 123 ID = 131
   0.910793 1  33A             Tx   d 8 00 00 00 00 00 00 00 00  Length = 967987 BitCount = 124 ID = 826
   0.911785 1  3BE             Tx   d 8 00 00 00 CC 00 00 00 21  Length = 967987 BitCount = 124 ID = 958
   0.912785 1  333             Tx   d 8 00 00 00 00 00 00 00 00  Length = 975987 BitCount = 125 ID = 819
   0.923561 1  567             Tx   d 3 09 02 01  Length = 567987 BitCount = 74 ID = 1383
   0.935616 1  326             Rx   d 8 01 90 03 FF 01 90 00 C8  Length = 935773 BitCount = 121 ID = 806
   0.951920 1  3BC             Tx   d 8 EC 00 1C 96 00 00 3F 00  Length = 927987 BitCount = 119 ID = 956
   0.952880 1  42C             Tx   d 8 05 51 74 00 00 38 00 40  Length = 935987 BitCount = 120 ID = 1068
   0.953848 1  42A             Tx   d 8 D8 50 78 E0 00 00 00 00  Length = 943987 BitCount = 121 ID = 1066
   0.954808 1  42E             Tx   d 8 05 00 00 E0 00 0F 00 31  Length = 935987 BitCount = 120 ID = 1070
   0.999000    SV: 2 0 1 ::NM_CAN1::NODES::N_SCME::State = 4
   0.999000    SV: 2 0 1 ::NM_CAN1::NODES::N_SCME::Mode = 1
   0.999000    SV: 2 0 1 ::NM_CAN1::NODES::N_PDM::State = 4
   0.999000    SV: 2 0 1 ::NM_CAN1::NODES::N_PDM::Mode = 1
   0.999000    SV: 2 0 1 ::NM_CAN1::NODES::N_RGTM::State = 4
   0.999000    SV: 2 0 1 ::NM_CAN1::NODES::N_RGTM::Mode = 1
   0.999000    envNetworkState := "NM_STATE_NORMAL_OPERATION"
   0.999000    SV: 2 0 1 ::NM_CAN1::NODES::N_GWM::State = 4
   0.999000    SV: 2 0 1 ::NM_CAN1::NODES::N_GWM::Mode = 1
   0.999000    SV: 2 0 1 ::NM_CAN1::NODES::N_DDM::State = 4
   0.999000    SV: 2 0 1 ::NM_CAN1::NODES::N_DDM::Mode = 1
   0.999000    SV: 2 0 1 ::NM_CAN1::NODES::N_DSM::State = 4
   0.999000    SV: 2 0 1 ::NM_CAN1::NODES::N_DSM::Mode = 1
   1.001896 1  42E             Tx   d 8 05 00 00 E0 00 0F 00 31  Length = 935987 BitCount = 120 ID = 1070
   1.002864 1  42A             Tx   d 8 D8 50 78 E0 00 00 00 00  Length = 943987 BitCount = 121 ID = 1066
   1.003824 1  42C             Tx   d 8 05 51 74 00 00 38 00 40  Length = 935987 BitCount = 120 ID = 1068
   1.004816 1  386             Tx   d 8 00 00 00 00 00 00 00 00  Length = 967987 BitCount = 124 ID = 902
   1.005808 1  3DE             Tx   d 8 00 00 00 00 80 00 00 00  Length = 967987 BitCount = 124 ID = 990
   1.006760 1  3BC             Tx   d 8 EC 00 1C 96 00 00 3F 00  Length = 927987 BitCount = 119 ID = 956
   1.007752 1  167             Tx   d 8 01 00 00 00 00 00 00 00  Length = 967987 BitCount = 124 ID = 359
   1.008744 1  33B             Tx   d 8 00 00 00 00 00 00 00 00  Length = 967987 BitCount = 124 ID = 827
   1.009752 1  580             Tx   d 8 80 00 00 00 00 00 00 00  Length = 983987 BitCount = 126 ID = 1408
   1.010736 1  331             Tx   d 8 40 00 00 00 02 00 00 00  Length = 959987 BitCount = 123 ID = 817
   1.011744 1  40A             Tx   d 8 00 00 00 00 00 00 00 00  Length = 983987 BitCount = 126 ID = 1034
   1.012680 1  2FD             Tx   d 8 44 00 E4 4C 01 51 C0 52  Length = 911987 BitCount = 117 ID = 765
   1.013688 1  580             Tx   d 8 80 00 00 00 00 00 00 00  Length = 983987 BitCount = 126 ID = 1408
   1.014672 1  42B             Tx   d 8 00 88 00 00 00 00 00 00  Length = 959987 BitCount = 123 ID = 1067
   1.015680 1  33C             Tx   d 8 00 00 00 00 00 00 00 00  Length = 983987 BitCount = 126 ID = 828
   1.016664 1  359             Tx   d 8 00 3C 00 00 00 00 00 00  Length = 959987 BitCount = 123 ID = 857
   1.017664 1  333             Tx   d 8 00 00 00 00 00 00 00 00  Length = 975987 BitCount = 125 ID = 819
   1.018648 1  3EB             Tx   d 8 00 04 44 00 00 00 00 00  Length = 959987 BitCount = 123 ID = 1003
   1.019656 1  580             Tx   d 8 80 00 00 00 00 00 00 00  Length = 983987 BitCount = 126 ID = 1408
   1.020648 1  178             Tx   d 8 00 00 00 00 0C 00 00 00  Length = 967987 BitCount = 124 ID = 376
   1.021656 1  580             Tx   d 8 80 00 00 00 00 00 00 00  Length = 983987 BitCount = 126 ID = 1408
   1.022632 1  347             Tx   d 8 00 00 03 00 03 00 03 00  Length = 951987 BitCount = 122 ID = 839
   1.023624 1  3D5             Tx   d 8 04 00 00 00 00 00 00 00  Length = 967987 BitCount = 124 ID = 981
   1.024632 1  358             Tx   d 8 00 00 00 00 00 00 00 00  Length = 983987 BitCount = 126 ID = 856
   1.025640 1  415             Tx   d 8 00 00 00 00 00 00 00 00  Length = 983987 BitCount = 126 ID = 1045
   1.026648 1  580             Tx   d 8 80 00 00 00 00 00 00 00  Length = 983987 BitCount = 126 ID = 1408
   1.027656 1  580             Tx   d 8 80 00 00 00 00 00 00 00  Length = 983987 BitCount = 126 ID = 1408
   1.028664 1  580             Tx   d 8 80 00 00 00 00 00 00 00  Length = 983987 BitCount = 126 ID = 1408
   1.029672 1  580             Tx   d 8 80 00 00 00 00 00 00 00  Length = 983987 BitCount = 126 ID = 1408
   1.029972 1  Statistic: D 283 R 0 XD 0 XR 0 E 14 O 0 B 27.76%
   1.030616 1  3C4             Tx   d 8 56 00 E8 7F 00 00 9F D7  Length = 919987 BitCount = 118 ID = 964
   1.031608 1  313             Tx   d 8 00 00 00 00 00 00 00 00  Length = 967987 BitCount = 124 ID = 787
   1.032616 1  580             Tx   d 8 80 00 00 00 00 00 00 00  Length = 983987 BitCount = 126 ID = 1408
   1.033616 1  3B1             Tx   d 8 00 00 00 00 00 00 00 00  Length = 975987 BitCount = 125 ID = 945
   1.034584 1  36A             Tx   d 8 FF 80 FF 80 00 00 00 00  Length = 943987 BitCount = 121 ID = 874
   1.035576 1  3BE             Tx   d 8 00 00 00 CC 00 00 00 21  Length = 967987 BitCount = 124 ID = 958
   1.036535 1  326             Rx   d 8 01 90 03 FF 01 90 00 C8  Length = 935773 BitCount = 121 ID = 806
   1.037543 1  349             Tx   d 8 00 00 00 00 00 00 00 00  Length = 975987 BitCount = 125 ID = 841
   1.038463 1  355             Rx   d 8 A2 07 A2 A0 2A AA 08 E0  Length = 895988 BitCount = 116 ID = 853
   1.039423 1  356             Rx   d 8 00 3C 20 20 20 20 00 00  Length = 927988 BitCount = 120 ID = 854
   1.040407 1  35E             Rx   d 8 00 C0 3E 00 72 00 00 00  Length = 951773 BitCount = 123 ID = 862
   1.041415 1  3E7             Rx   d 8 00 00 00 00 00 00 00 00  Length = 975988 BitCount = 126 ID = 999
   1.042407 1  41A             Rx   d 8 FE 00 00 00 00 00 00 00  Length = 959988 BitCount = 124 ID = 1050
   1.043390 1  124             Rx   d 8 02 02 00 00 00 00 00 00  Length = 951504 BitCount = 123 ID = 292
   1.044373 1  36D             Rx   d 8 80 00 00 00 00 00 00 00  Length = 951773 BitCount = 123 ID = 877
   1.045333 1  373             Rx   d 8 FF 7F BF DF EF F0 00 00  Length = 927988 BitCount = 120 ID = 883
   1.046285 1  374             Rx   d 8 FF 7F BF DF EF F7 F8 80  Length = 919988 BitCount = 119 ID = 884
   1.047301 1  580             Tx   d 8 80 00 00 00 00 00 00 00  Length = 983987 BitCount = 126 ID = 1408
   1.048285 1  83              Tx   d 8 00 00 03 FE FF 91 FF FE  Length = 959987 BitCount = 123 ID = 131
   1.049253 1  3B3             Tx   d 8 10 80 C0 0C E0 02 00 00  Length = 943987 BitCount = 121 ID = 947
   1.050205 1  433             Tx   d 8 FC 43 00 0F 07 02 00 00  Length = 927987 BitCount = 119 ID = 1075
   1.051197 1  33A             Tx   d 8 00 00 00 00 00 00 00 00  Length = 967987 BitCount = 124 ID = 826
   1.052205 1  344             Tx   d 8 00 00 00 00 00 00 00 00  Length = 983987 BitCount = 126 ID = 836
   1.053213 1  304             Tx   d 8 00 00 00 00 00 00 00 00  Length = 983987 BitCount = 126 ID = 772
   1.054205 1  332             Tx   d 8 00 00 00 00 00 00 00 00  Length = 967987 BitCount = 124 ID = 818
   1.055213 1  580             Tx   d 8 80 00 00 00 00 00 00 00  Length = 983987 BitCount = 126 ID = 1408
   1.056205 1  216             Tx   d 8 00 00 00 00 00 00 00 00  Length = 967987 BitCount = 124 ID = 534
   1.057213 1  3E0             Tx   d 8 00 00 00 00 80 00 00 00  Length = 983987 BitCount = 126 ID = 992
   1.058213 1  3E2             Tx   d 8 00 00 00 00 80 00 00 00  Length = 975987 BitCount = 125 ID = 994
   1.059189 1  437             Tx   d 8 10 08 04 00 00 00 00 00  Length = 951987 BitCount = 122 ID = 1079
   1.060181 1  443             Tx   d 8 00 00 00 00 00 00 00 00  Length = 967987 BitCount = 124 ID = 1091
   1.061157 1  31C             Tx   d 8 00 00 00 7F 00 00 88 14  Length = 951987 BitCount = 122 ID = 796
   1.062165 1  125             Tx   d 8 00 00 00 00 00 00 00 00  Length = 983987 BitCount = 126 ID = 293
   1.063165 1  305             Tx   d 8 00 00 00 00 00 00 00 00  Length = 975987 BitCount = 125 ID = 773
   1.063765 1  509             Tx   d 3 1E 02 01  Length = 575987 BitCount = 75 ID = 1289
   1.064765 1  584             Tx   d 8 84 00 00 00 00 00 00 00  Length = 975987 BitCount = 125 ID = 1412
   1.065749 1  585             Tx   d 8 85 00 00 00 00 00 00 00  Length = 959987 BitCount = 123 ID = 1413
   1.066709 1  42E             Tx   d 8 05 00 00 E0 00 0F 00 31  Length = 935987 BitCount = 120 ID = 1070
   1.067661 1  3BC             Tx   d 8 EC 00 1C 96 00 00 3F 00  Length = 927987 BitCount = 119 ID = 956
   1.068621 1  42C             Tx   d 8 05 51 74 00 00 38 00 40  Length = 935987 BitCount = 120 ID = 1068
   1.069589 1  42A             Tx   d 8 D8 50 78 E0 00 00 00 00  Length = 943987 BitCount = 121 ID = 1066
   1.087053 1  58B             Tx   d 8 8B 00 00 00 00 00 00 00  Length = 959987 BitCount = 123 ID = 1419
   1.102125 1  347             Tx   d 8 00 00 03 00 03 00 03 00  Length = 951987 BitCount = 122 ID = 839
   1.103085 1  42C             Tx   d 8 05 51 74 00 00 38 00 40  Length = 935987 BitCount = 120 ID = 1068
   1.104053 1  42A             Tx   d 8 D8 50 78 E0 00 00 00 00  Length = 943987 BitCount = 121 ID = 1066
   1.105013 1  42E             Tx   d 8 05 00 00 E0 00 0F 00 31  Length = 935987 BitCount = 120 ID = 1070
   1.106021 1  3E1             Tx   d 8 00 00 00 00 00 80 00 00  Length = 983987 BitCount = 126 ID = 993
   1.106973 1  3BC             Tx   d 8 EC 00 1C 96 00 00 3F 00  Length = 927987 BitCount = 119 ID = 956
   1.107973 1  333             Tx   d 8 00 00 00 00 00 00 00 00  Length = 975987 BitCount = 125 ID = 819
   1.108981 1  415             Tx   d 8 00 00 00 00 00 00 00 00  Length = 983987 BitCount = 126 ID = 1045
   1.109973 1  3BE             Tx   d 8 00 00 00 CC 00 00 00 21  Length = 967987 BitCount = 124 ID = 958
   1.110957 1  83              Tx   d 8 00 00 03 FE FF 91 FF FE  Length = 959987 BitCount = 123 ID = 131
   1.111949 1  33A             Tx   d 8 00 00 00 00 00 00 00 00  Length = 967987 BitCount = 124 ID = 826
   1.112941 1  332             Tx   d 8 00 00 00 00 00 00 00 00  Length = 967987 BitCount = 124 ID = 818
   1.113933 1  216             Tx   d 8 00 00 00 00 00 00 00 00  Length = 967987 BitCount = 124 ID = 534
   1.135603 1  326             Rx   d 8 01 90 03 FF 01 90 00 C8  Length = 935773 BitCount = 121 ID = 806
   1.151987 1  42E             Tx   d 8 05 00 00 E0 00 0F 00 31  Length = 935987 BitCount = 120 ID = 1070
   1.152947 1  42C             Tx   d 8 05 51 74 00 00 38 00 40  Length = 935987 BitCount = 120 ID = 1068
   1.153899 1  3BC             Tx   d 8 EC 00 1C 96 00 00 3F 00  Length = 927987 BitCount = 119 ID = 956
   1.154867 1  42A             Tx   d 8 D8 50 78 E0 00 00 00 00  Length = 943987 BitCount = 121 ID = 1066
   1.164595 1  51E             Tx   d 3 3B 02 01  Length = 567987 BitCount = 74 ID = 1310
   1.202099 1  42A             Tx   d 8 D8 50 78 E0 00 00 00 00  Length = 943987 BitCount = 121 ID = 1066
   1.203091 1  216             Tx   d 8 00 00 00 00 00 00 00 00  Length = 967987 BitCount = 124 ID = 534
   1.204083 1  332             Tx   d 8 00 00 00 00 00 00 00 00  Length = 967987 BitCount = 124 ID = 818
   1.205043 1  42C             Tx   d 8 05 51 74 00 00 38 00 40  Length = 935987 BitCount = 120 ID = 1068
   1.206019 1  347             Tx   d 8 00 00 03 00 03 00 03 00  Length = 951987 BitCount = 122 ID = 839
   1.206971 1  3BC             Tx   d 8 EC 00 1C 96 00 00 3F 00  Length = 927987 BitCount = 119 ID = 956
   1.207931 1  42E             Tx   d 8 05 00 00 E0 00 0F 00 31  Length = 935987 BitCount = 120 ID = 1070
   1.208875 1  3C4             Tx   d 8 56 00 E8 7F 00 00 9F D7  Length = 919987 BitCount = 118 ID = 964
   1.209867 1  33A             Tx   d 8 00 00 00 00 00 00 00 00  Length = 967987 BitCount = 124 ID = 826
   1.210851 1  83              Tx   d 8 00 00 03 FE FF 91 FF FE  Length = 959987 BitCount = 123 ID = 131
   1.211851 1  33F             Tx   d 8 00 00 00 00 00 00 00 00  Length = 975987 BitCount = 125 ID = 831
   1.212843 1  3BE             Tx   d 8 00 00 00 CC 00 00 00 21  Length = 967987 BitCount = 124 ID = 958
   1.213851 1  415             Tx   d 8 00 00 00 00 00 00 00 00  Length = 983987 BitCount = 126 ID = 1045
   1.214851 1  333             Tx   d 8 00 00 00 00 00 00 00 00  Length = 975987 BitCount = 125 ID = 819
   1.235601 1  326             Rx   d 8 01 90 03 FF 01 90 00 C8  Length = 935773 BitCount = 121 ID = 806
   1.236585 1  59E             Tx   d 8 9E 00 00 00 00 00 00 00  Length = 951987 BitCount = 122 ID = 1438
   1.252049 1  42A             Tx   d 8 D8 50 78 E0 00 00 00 00  Length = 943987 BitCount = 121 ID = 1066
   1.253009 1  42C             Tx   d 8 05 51 74 00 00 38 00 40  Length = 935987 BitCount = 120 ID = 1068
   1.253961 1  3BC             Tx   d 8 EC 00 1C 96 00 00 3F 00  Length = 927987 BitCount = 119 ID = 956
   1.254945 1  42B             Tx   d 8 00 88 00 00 00 00 00 00  Length = 959987 BitCount = 123 ID = 1067
   1.255905 1  42E             Tx   d 8 05 00 00 E0 00 0F 00 31  Length = 935987 BitCount = 120 ID = 1070
   1.265609 1  53B             Tx   d 3 54 02 01  Length = 575987 BitCount = 75 ID = 1339
   1.297985 1  5A6             Tx   d 8 A6 00 00 00 00 00 00 00  Length = 951987 BitCount = 122 ID = 1446
   1.302041 1  42C             Tx   d 8 05 51 74 00 00 38 00 40  Length = 935987 BitCount = 120 ID = 1068
   1.303049 1  415             Tx   d 8 00 00 00 00 00 00 00 00  Length = 983987 BitCount = 126 ID = 1045
   1.304009 1  42E             Tx   d 8 05 00 00 E0 00 0F 00 31  Length = 935987 BitCount = 120 ID = 1070
   1.304961 1  3BC             Tx   d 8 EC 00 1C 96 00 00 3F 00  Length = 927987 BitCount = 119 ID = 956
   1.305961 1  333             Tx   d 8 00 00 00 00 00 00 00 00  Length = 975987 BitCount = 125 ID = 819
   1.306953 1  216             Tx   d 8 00 00 00 00 00 00 00 00  Length = 967987 BitCount = 124 ID = 534
   1.307921 1  42A             Tx   d 8 D8 50 78 E0 00 00 00 00  Length = 943987 BitCount = 121 ID = 1066
   1.308897 1  347             Tx   d 8 00 00 03 00 03 00 03 00  Length = 951987 BitCount = 122 ID = 839
   1.309889 1  3BE             Tx   d 8 00 00 00 CC 00 00 00 21  Length = 967987 BitCount = 124 ID = 958
   1.310881 1  332             Tx   d 8 00 00 00 00 00 00 00 00  Length = 967987 BitCount = 124 ID = 818
   1.311865 1  83              Tx   d 8 00 00 03 FE FF 91 FF FE  Length = 959987 BitCount = 123 ID = 131
   1.312857 1  33A             Tx   d 8 00 00 00 00 00 00 00 00  Length = 967987 BitCount = 124 ID = 826
   1.313833 1  5A7             Tx   d 8 A7 00 00 00 00 00 00 00  Length = 951987 BitCount = 122 ID = 1447
   1.335591 1  326             Rx   d 8 01 90 03 FF 01 90 00 C8  Length = 935773 BitCount = 121 ID = 806
   1.352007 1  3BC             Tx   d 8 EC 00 1C 96 00 00 3F 00  Length = 927987 BitCount = 119 ID = 956
   1.352967 1  42C             Tx   d 8 05 51 74 00 00 38 00 40  Length = 935987 BitCount = 120 ID = 1068
   1.353927 1  42E             Tx   d 8 05 00 00 E0 00 0F 00 31  Length = 935987 BitCount = 120 ID = 1070
   1.354895 1  42A             Tx   d 8 D8 50 78 E0 00 00 00 00  Length = 943987 BitCount = 121 ID = 1066
   1.366559 1  554             Tx   d 3 67 02 01  Length = 575987 BitCount = 75 ID = 1364
   1.401999 1  3BC             Tx   d 8 EC 00 1C 96 00 00 3F 00  Length = 927987 BitCount = 119 ID = 956
   1.402983 1  83              Tx   d 8 00 00 03 FE FF 91 FF FE  Length = 959987 BitCount = 123 ID = 131
   1.403951 1  42A             Tx   d 8 D8 50 78 E0 00 00 00 00  Length = 943987 BitCount = 121 ID = 1066
   1.404911 1  42E             Tx   d 8 05 00 00 E0 00 0F 00 31  Length = 935987 BitCount = 120 ID = 1070
   1.405871 1  42C             Tx   d 8 05 51 74 00 00 38 00 40  Length = 935987 BitCount = 120 ID = 1068
   1.406879 1  415             Tx   d 8 00 00 00 00 00 00 00 00  Length = 983987 BitCount = 126 ID = 1045
   1.407871 1  33A             Tx   d 8 00 00 00 00 00 00 00 00  Length = 967987 BitCount = 124 ID = 826
   1.408871 1  333             Tx   d 8 00 00 00 00 00 00 00 00  Length = 975987 BitCount = 125 ID = 819
   1.409863 1  332             Tx   d 8 00 00 00 00 00 00 00 00  Length = 967987 BitCount = 124 ID = 818
   1.410855 1  216             Tx   d 8 00 00 00 00 00 00 00 00  Length = 967987 BitCount = 124 ID = 534
   1.411847 1  3BE             Tx   d 8 00 00 00 CC 00 00 00 21  Length = 967987 BitCount = 124 ID = 958
   1.412823 1  347             Tx   d 8 00 00 03 00 03 00 03 00  Length = 951987 BitCount = 122 ID = 839
   1.413767 1  3C4             Tx   d 8 56 00 E8 7F 00 00 9F D7  Length = 919987 BitCount = 118 ID = 964
   1.435606 1  326             Rx   d 8 01 90 03 FF 01 90 00 C8  Length = 935773 BitCount = 121 ID = 806
   1.451998 1  42E             Tx   d 8 05 00 00 E0 00 0F 00 31  Length = 935987 BitCount = 120 ID = 1070
   1.452950 1  3BC             Tx   d 8 EC 00 1C 96 00 00 3F 00  Length = 927987 BitCount = 119 ID = 956
   1.453918 1  42A             Tx   d 8 D8 50 78 E0 00 00 00 00  Length = 943987 BitCount = 121 ID = 1066
   1.454878 1  42C             Tx   d 8 05 51 74 00 00 38 00 40  Length = 935987 BitCount = 120 ID = 1068
   1.467574 1  567             Tx   d 3 09 02 01  Length = 567987 BitCount = 74 ID = 1383
   1.501934 1  3BC             Tx   d 8 EC 00 1C 96 00 00 3F 00  Length = 927987 BitCount = 119 ID = 956
   1.502902 1  42A             Tx   d 8 D8 50 78 E0 00 00 00 00  Length = 943987 BitCount = 121 ID = 1066
   1.503878 1  347             Tx   d 8 00 00 03 00 03 00 03 00  Length = 951987 BitCount = 122 ID = 839
   1.504838 1  42E             Tx   d 8 05 00 00 E0 00 0F 00 31  Length = 935987 BitCount = 120 ID = 1070
   1.505798 1  42C             Tx   d 8 05 51 74 00 00 38 00 40  Length = 935987 BitCount = 120 ID = 1068
   1.506782 1  83              Tx   d 8 00 00 03 FE FF 91 FF FE  Length = 959987 BitCount = 123 ID = 131
   1.507766 1  42B             Tx   d 8 00 88 00 00 00 00 00 00  Length = 959987 BitCount = 123 ID = 1067
   1.508758 1  3BE             Tx   d 8 00 00 00 CC 00 00 00 21  Length = 967987 BitCount = 124 ID = 958
   1.509750 1  216             Tx   d 8 00 00 00 00 00 00 00 00  Length = 967987 BitCount = 124 ID = 534
   1.510758 1  415             Tx   d 8 00 00 00 00 00 00 00 00  Length = 983987 BitCount = 126 ID = 1045
   1.511750 1  332             Tx   d 8 00 00 00 00 00 00 00 00  Length = 967987 BitCount = 124 ID = 818
   1.512750 1  333             Tx   d 8 00 00 00 00 00 00 00 00  Length = 975987 BitCount = 125 ID = 819
   1.513742 1  33A             Tx   d 8 00 00 00 00 00 00 00 00  Length = 967987 BitCount = 124 ID = 826
   1.535580 1  326             Rx   d 8 01 90 03 FF 01 90 00 C8  Length = 935773 BitCount = 121 ID = 806
   1.552148 1  42E             Tx   d 8 05 00 00 E0 00 0F 00 31  Length = 935987 BitCount = 120 ID = 1070
   1.553116 1  42A             Tx   d 8 D8 50 78 E0 00 00 00 00  Length = 943987 BitCount = 121 ID = 1066
   1.554068 1  3BC             Tx   d 8 EC 00 1C 96 00 00 3F 00  Length = 927987 BitCount = 119 ID = 956
   1.555028 1  42C             Tx   d 8 05 51 74 00 00 38 00 40  Length = 935987 BitCount = 120 ID = 1068
   1.568724 1  509             Tx   d 3 1E 12 01  Length = 559987 BitCount = 73 ID = 1289
   1.602116 1  33A             Tx   d 8 00 00 00 00 00 00 00 00  Length = 967987 BitCount = 124 ID = 826
   1.603076 1  42E             Tx   d 8 05 00 00 E0 00 0F 00 31  Length = 935987 BitCount = 120 ID = 1070
   1.604084 1  415             Tx   d 8 00 00 00 00 00 00 00 00  Length = 983987 BitCount = 126 ID = 1045
   1.605076 1  3BE             Tx   d 8 00 00 00 CC 00 00 00 21  Length = 967987 BitCount = 124 ID = 958
   1.606052 1  347             Tx   d 8 00 00 03 00 03 00 03 00  Length = 951987 BitCount = 122 ID = 839
   1.607052 1  333             Tx   d 8 00 00 00 00 00 00 00 00  Length = 975987 BitCount = 125 ID = 819
   1.608044 1  216             Tx   d 8 00 00 00 00 00 00 00 00  Length = 967987 BitCount = 124 ID = 534
   1.609036 1  332             Tx   d 8 00 00 00 00 00 00 00 00  Length = 967987 BitCount = 124 ID = 818
   1.609980 1  3C4             Tx   d 8 56 00 E8 7F 00 00 9F D7  Length = 919987 BitCount = 118 ID = 964
   1.610940 1  42C             Tx   d 8 05 51 74 00 00 38 00 40  Length = 935987 BitCount = 120 ID = 1068
   1.611892 1  3BC             Tx   d 8 EC 00 1C 96 00 00 3F 00  Length = 927987 BitCount = 119 ID = 956
   1.612860 1  42A             Tx   d 8 D8 50 78 E0 00 00 00 00  Length = 943987 BitCount = 121 ID = 1066
   1.613844 1  83              Tx   d 8 00 00 03 FE FF 91 FF FE  Length = 959987 BitCount = 123 ID = 131
   1.635570 1  326             Rx   d 8 01 90 03 FF 01 90 00 C8  Length = 935773 BitCount = 121 ID = 806
   1.651978 1  42C             Tx   d 8 05 51 74 00 00 38 00 40  Length = 935987 BitCount = 120 ID = 1068
   1.652930 1  3BC             Tx   d 8 EC 00 1C 96 00 00 3F 00  Length = 927987 BitCount = 119 ID = 956
   1.653898 1  42A             Tx   d 8 D8 50 78 E0 00 00 00 00  Length = 943987 BitCount = 121 ID = 1066
   1.654858 1  42E             Tx   d 8 05 00 00 E0 00 0F 00 31  Length = 935987 BitCount = 120 ID = 1070
   1.669650 1  51E             Tx   d 3 3B 12 01  Length = 567987 BitCount = 74 ID = 1310
   1.689058 1  5D8             Tx   d 8 D8 00 00 00 00 00 00 00  Length = 967987 BitCount = 124 ID = 1496
   1.702074 1  42A             Tx   d 8 D8 50 78 E0 00 00 00 00  Length = 943987 BitCount = 121 ID = 1066
   1.703066 1  216             Tx   d 8 00 00 00 00 00 00 00 00  Length = 967987 BitCount = 124 ID = 534
   1.704042 1  347             Tx   d 8 00 00 03 00 03 00 03 00  Length = 951987 BitCount = 122 ID = 839
   1.705034 1  33A             Tx   d 8 00 00 00 00 00 00 00 00  Length = 967987 BitCount = 124 ID = 826
   1.706026 1  3BE             Tx   d 8 00 00 00 CC 00 00 00 21  Length = 967987 BitCount = 124 ID = 958
   1.707034 1  415             Tx   d 8 00 00 00 00 00 00 00 00  Length = 983987 BitCount = 126 ID = 1045
   1.708018 1  83              Tx   d 8 00 00 03 FE FF 91 FF FE  Length = 959987 BitCount = 123 ID = 131
   1.709018 1  333             Tx   d 8 00 00 00 00 00 00 00 00  Length = 975987 BitCount = 125 ID = 819
   1.709978 1  42E             Tx   d 8 05 00 00 E0 00 0F 00 31  Length = 935987 BitCount = 120 ID = 1070
   1.710938 1  42C             Tx   d 8 05 51 74 00 00 38 00 40  Length = 935987 BitCount = 120 ID = 1068
   1.711890 1  3BC             Tx   d 8 EC 00 1C 96 00 00 3F 00  Length = 927987 BitCount = 119 ID = 956
   1.712882 1  332             Tx   d 8 00 00 00 00 00 00 00 00  Length = 967987 BitCount = 124 ID = 818
   1.735568 1  326             Rx   d 8 01 90 03 FF 01 90 00 C8  Length = 935773 BitCount = 121 ID = 806
   1.751944 1  42C             Tx   d 8 05 51 74 00 00 38 00 40  Length = 935987 BitCount = 120 ID = 1068
   1.752912 1  42A             Tx   d 8 D8 50 78 E0 00 00 00 00  Length = 943987 BitCount = 121 ID = 1066
   1.753864 1  3BC             Tx   d 8 EC 00 1C 96 00 00 3F 00  Length = 927987 BitCount = 119 ID = 956
   1.754848 1  42B             Tx   d 8 00 88 00 00 00 00 00 00  Length = 959987 BitCount = 123 ID = 1067
   1.755808 1  42E             Tx   d 8 05 00 00 E0 00 0F 00 31  Length = 935987 BitCount = 120 ID = 1070
   1.770632 1  53B             Tx   d 3 54 12 01  Length = 567987 BitCount = 74 ID = 1339
   1.802008 1  332             Tx   d 8 00 00 00 00 00 00 00 00  Length = 967987 BitCount = 124 ID = 818
   1.802968 1  42E             Tx   d 8 05 00 00 E0 00 0F 00 31  Length = 935987 BitCount = 120 ID = 1070
   1.803928 1  42C             Tx   d 8 05 51 74 00 00 38 00 40  Length = 935987 BitCount = 120 ID = 1068
   1.804936 1  415             Tx   d 8 00 00 00 00 00 00 00 00  Length = 983987 BitCount = 126 ID = 1045
   1.805880 1  3C4             Tx   d 8 56 00 E8 7F 00 00 9F D7  Length = 919987 BitCount = 118 ID = 964
   1.806872 1  33A             Tx   d 8 00 00 00 00 00 00 00 00  Length = 967987 BitCount = 124 ID = 826
   1.807848 1  347             Tx   d 8 00 00 03 00 03 00 03 00  Length = 951987 BitCount = 122 ID = 839
   1.808840 1  216             Tx   d 8 00 00 00 00 00 00 00 00  Length = 967987 BitCount = 124 ID = 534
   1.809832 1  3BE             Tx   d 8 00 00 00 CC 00 00 00 21  Length = 967987 BitCount = 124 ID = 958
   1.810784 1  3BC             Tx   d 8 EC 00 1C 96 00 00 3F 00  Length = 927987 BitCount = 119 ID = 956
   1.811752 1  42A             Tx   d 8 D8 50 78 E0 00 00 00 00  Length = 943987 BitCount = 121 ID = 1066
   1.812752 1  333             Tx   d 8 00 00 00 00 00 00 00 00  Length = 975987 BitCount = 125 ID = 819
   1.813736 1  83              Tx   d 8 00 00 03 FE FF 91 FF FE  Length = 959987 BitCount = 123 ID = 131
   1.835558 1  326             Rx   d 8 01 90 03 FF 01 90 00 C8  Length = 935773 BitCount = 121 ID = 806
   1.851958 1  3BC             Tx   d 8 EC 00 1C 96 00 00 3F 00  Length = 927987 BitCount = 119 ID = 956
   1.852926 1  42A             Tx   d 8 D8 50 78 E0 00 00 00 00  Length = 943987 BitCount = 121 ID = 1066
   1.853886 1  42E             Tx   d 8 05 00 00 E0 00 0F 00 31  Length = 935987 BitCount = 120 ID = 1070
   1.854846 1  42C             Tx   d 8 05 51 74 00 00 38 00 40  Length = 935987 BitCount = 120 ID = 1068
   1.871614 1  554             Tx   d 3 67 12 01  Length = 559987 BitCount = 73 ID = 1364
   1.901958 1  347             Tx   d 8 00 00 03 00 03 00 03 00  Length = 951987 BitCount = 122 ID = 839
   1.902918 1  42E             Tx   d 8 05 00 00 E0 00 0F 00 31  Length = 935987 BitCount = 120 ID = 1070
   1.903902 1  83              Tx   d 8 00 00 03 FE FF 91 FF FE  Length = 959987 BitCount = 123 ID = 131
   1.904902 1  333             Tx   d 8 00 00 00 00 00 00 00 00  Length = 975987 BitCount = 125 ID = 819
   1.905894 1  332             Tx   d 8 00 00 00 00 00 00 00 00  Length = 967987 BitCount = 124 ID = 818
   1.906886 1  33A             Tx   d 8 00 00 00 00 00 00 00 00  Length = 967987 BitCount = 124 ID = 826
   1.907878 1  3BE             Tx   d 8 00 00 00 CC 00 00 00 21  Length = 967987 BitCount = 124 ID = 958
   1.908886 1  415             Tx   d 8 00 00 00 00 00 00 00 00  Length = 983987 BitCount = 126 ID = 1045
   1.909846 1  42C             Tx   d 8 05 51 74 00 00 38 00 40  Length = 935987 BitCount = 120 ID = 1068
   1.910798 1  3BC             Tx   d 8 EC 00 1C 96 00 00 3F 00  Length = 927987 BitCount = 119 ID = 956
   1.911766 1  42A             Tx   d 8 D8 50 78 E0 00 00 00 00  Length = 943987 BitCount = 121 ID = 1066
   1.912758 1  216             Tx   d 8 00 00 00 00 00 00 00 00  Length = 967987 BitCount = 124 ID = 534
   1.935548 1  326             Rx   d 8 01 90 03 FF 01 90 00 C8  Length = 935773 BitCount = 121 ID = 806
   1.951948 1  42C             Tx   d 8 05 51 74 00 00 38 00 40  Length = 935987 BitCount = 120 ID = 1068
   1.952900 1  3BC             Tx   d 8 EC 00 1C 96 00 00 3F 00  Length = 927987 BitCount = 119 ID = 956
   1.953868 1  42A             Tx   d 8 D8 50 78 E0 00 00 00 00  Length = 943987 BitCount = 121 ID = 1066
   1.954828 1  42E             Tx   d 8 05 00 00 E0 00 0F 00 31  Length = 935987 BitCount = 120 ID = 1070
   1.972572 1  567             Tx   d 3 09 12 01  Length = 567987 BitCount = 74 ID = 1383
   2.001964 1  216             Tx   d 8 00 00 00 00 00 00 00 00  Length = 967987 BitCount = 124 ID = 534
   2.002972 1  304             Tx   d 8 00 00 00 00 00 00 00 00  Length = 983987 BitCount = 126 ID = 772
   2.003980 1  580             Tx   d 8 80 00 00 00 00 00 00 00  Length = 983987 BitCount = 126 ID = 1408
   2.004988 1  40A             Tx   d 8 00 00 00 00 00 00 00 00  Length = 983987 BitCount = 126 ID = 1034
   2.005980 1  3DE             Tx   d 8 00 00 00 00 80 00 00 00  Length = 967987 BitCount = 124 ID = 990
   2.006972 1  33B             Tx   d 8 00 00 00 00 00 00 00 00  Length = 967987 BitCount = 124 ID = 827
   2.007964 1  167             Tx   d 8 01 00 00 00 00 00 00 00  Length = 967987 BitCount = 124 ID = 359
   2.008956 1  386             Tx   d 8 00 00 00 00 00 00 00 00  Length = 967987 BitCount = 124 ID = 902
   2.009956 1  3E2             Tx   d 8 00 00 00 00 80 00 00 00  Length = 975987 BitCount = 125 ID = 994
   2.010940 1  331             Tx   d 8 40 00 00 00 02 00 00 00  Length = 959987 BitCount = 123 ID = 817
   2.011940 1  305             Tx   d 8 00 00 00 00 00 00 00 00  Length = 975987 BitCount = 125 ID = 773
   2.012900 1  42C             Tx   d 8 05 51 74 00 00 38 00 40  Length = 935987 BitCount = 120 ID = 1068
   2.013908 1  3E0             Tx   d 8 00 00 00 00 80 00 00 00  Length = 983987 BitCount = 126 ID = 992
   2.014900 1  3BE             Tx   d 8 00 00 00 CC 00 00 00 21  Length = 967987 BitCount = 124 ID = 958
   2.015892 1  33A             Tx   d 8 00 00 00 00 00 00 00 00  Length = 967987 BitCount = 124 ID = 826
   2.016868 1  347             Tx   d 8 00 00 03 00 03 00 03 00  Length = 951987 BitCount = 122 ID = 839
   2.017804 1  2FD             Tx   d 8 44 00 E4 4C 01 51 C0 52  Length = 911987 BitCount = 117 ID = 765
   2.018812 1  33C             Tx   d 8 00 00 00 00 00 00 00 00  Length = 983987 BitCount = 126 ID = 828
   2.019804 1  332             Tx   d 8 00 00 00 00 00 00 00 00  Length = 967987 BitCount = 124 ID = 818
   2.020748 1  3C4             Tx   d 8 56 00 E8 7F 00 00 9F D7  Length = 919987 BitCount = 118 ID = 964
   2.021756 1  580             Tx   d 8 80 00 00 00 00 00 00 00  Length = 983987 BitCount = 126 ID = 1408
   2.022764 1  580             Tx   d 8 80 00 00 00 00 00 00 00  Length = 983987 BitCount = 126 ID = 1408
   2.023772 1  580             Tx   d 8 80 00 00 00 00 00 00 00  Length = 983987 BitCount = 126 ID = 1408
   2.024772 1  333             Tx   d 8 00 00 00 00 00 00 00 00  Length = 975987 BitCount = 125 ID = 819
   2.025756 1  83              Tx   d 8 00 00 03 FE FF 91 FF FE  Length = 959987 BitCount = 123 ID = 131
   2.026764 1  580             Tx   d 8 80 00 00 00 00 00 00 00  Length = 983987 BitCount = 126 ID = 1408
   2.027748 1  359             Tx   d 8 00 3C 00 00 00 00 00 00  Length = 959987 BitCount = 123 ID = 857
   2.028732 1  3EB             Tx   d 8 00 04 44 00 00 00 00 00  Length = 959987 BitCount = 123 ID = 1003
   2.029724 1  178             Tx   d 8 00 00 00 00 0C 00 00 00  Length = 967987 BitCount = 124 ID = 376
   2.029972 1  Statistic: D 246 R 0 XD 0 XR 0 E 0 O 0 B 23.68%
   2.030692 1  42A             Tx   d 8 D8 50 78 E0 00 00 00 00  Length = 943987 BitCount = 121 ID = 1066
   2.031684 1  3D5             Tx   d 8 04 00 00 00 00 00 00 00  Length = 967987 BitCount = 124 ID = 981
   2.032660 1  31C             Tx   d 8 00 00 00 7F 00 00 88 14  Length = 951987 BitCount = 122 ID = 796
   2.033668 1  358             Tx   d 8 00 00 00 00 00 00 00 00  Length = 983987 BitCount = 126 ID = 856
   2.034668 1  3B1             Tx   d 8 00 00 00 00 00 00 00 00  Length = 975987 BitCount = 125 ID = 945
   2.035628 1  326             Rx   d 8 01 90 03 FF 01 90 00 C8  Length = 935773 BitCount = 121 ID = 806
   2.036556 1  355             Rx   d 8 A2 07 A2 A0 2A AA 08 E0  Length = 895988 BitCount = 116 ID = 853
   2.037516 1  356             Rx   d 8 00 3C 20 20 20 20 00 00  Length = 927988 BitCount = 120 ID = 854
   2.038500 1  35E             Rx   d 8 00 C0 3E 00 72 00 00 00  Length = 951988 BitCount = 123 ID = 862
   2.039507 1  3E7             Rx   d 8 00 00 00 00 00 00 00 00  Length = 975773 BitCount = 126 ID = 999
   2.040499 1  41A             Rx   d 8 FE 00 00 00 00 00 00 00  Length = 959988 BitCount = 124 ID = 1050
   2.041483 1  124             Rx   d 8 02 02 00 00 00 00 00 00  Length = 951988 BitCount = 123 ID = 292
   2.042467 1  36D             Rx   d 8 80 00 00 00 00 00 00 00  Length = 951988 BitCount = 123 ID = 877
   2.043427 1  373             Rx   d 8 FF 7F BF DF EF F0 00 00  Length = 927773 BitCount = 120 ID = 883
   2.044379 1  374             Rx   d 8 FF 7F BF DF EF F7 F8 80  Length = 919988 BitCount = 119 ID = 884
   2.045395 1  580             Tx   d 8 80 00 00 00 00 00 00 00  Length = 983987 BitCount = 126 ID = 1408
   2.046403 1  580             Tx   d 8 80 00 00 00 00 00 00 00  Length = 983987 BitCount = 126 ID = 1408
   2.047411 1  580             Tx   d 8 80 00 00 00 00 00 00 00  Length = 983987 BitCount = 126 ID = 1408
   2.048419 1  580             Tx   d 8 80 00 00 00 00 00 00 00  Length = 983987 BitCount = 126 ID = 1408
   2.049387 1  36A             Tx   d 8 FF 80 FF 80 00 00 00 00  Length = 943987 BitCount = 121 ID = 874
   2.050395 1  580             Tx   d 8 80 00 00 00 00 00 00 00  Length = 983987 BitCount = 126 ID = 1408
   2.051387 1  313             Tx   d 8 00 00 00 00 00 00 00 00  Length = 967987 BitCount = 124 ID = 787
   2.052371 1  42B             Tx   d 8 00 88 00 00 00 00 00 00  Length = 959987 BitCount = 123 ID = 1067
   2.053379 1  125             Tx   d 8 00 00 00 00 00 00 00 00  Length = 983987 BitCount = 126 ID = 293
   2.054379 1  349             Tx   d 8 00 00 00 00 00 00 00 00  Length = 975987 BitCount = 125 ID = 841
   2.055371 1  443             Tx   d 8 00 00 00 00 00 00 00 00  Length = 967987 BitCount = 124 ID = 1091
   2.056379 1  580             Tx   d 8 80 00 00 00 00 00 00 00  Length = 983987 BitCount = 126 ID = 1408
   2.057347 1  3B3             Tx   d 8 10 80 C0 0C E0 02 00 00  Length = 943987 BitCount = 121 ID = 947
   2.058299 1  3BC             Tx   d 8 EC 00 1C 96 00 00 3F 00  Length = 927987 BitCount = 119 ID = 956
   2.059275 1  437             Tx   d 8 10 08 04 00 00 00 00 00  Length = 951987 BitCount = 122 ID = 1079
   2.060283 1  344             Tx   d 8 00 00 00 00 00 00 00 00  Length = 983987 BitCount = 126 ID = 836
   2.061235 1  433             Tx   d 8 FC 43 00 0F 07 02 00 00  Length = 927987 BitCount = 119 ID = 1075
   2.062195 1  42E             Tx   d 8 05 00 00 E0 00 0F 00 31  Length = 935987 BitCount = 120 ID = 1070
   2.063203 1  415             Tx   d 8 00 00 00 00 00 00 00 00  Length = 983987 BitCount = 126 ID = 1045
   2.064203 1  584             Tx   d 8 84 00 00 00 00 00 00 00  Length = 975987 BitCount = 125 ID = 1412
   2.065187 1  585             Tx   d 8 85 00 00 00 00 00 00 00  Length = 959987 BitCount = 123 ID = 1413
   2.066139 1  3BC             Tx   d 8 EC 00 1C 96 00 00 3F 00  Length = 927987 BitCount = 119 ID = 956
   2.067099 1  42E             Tx   d 8 05 00 00 E0 00 0F 00 31  Length = 935987 BitCount = 120 ID = 1070
   2.068059 1  42C             Tx   d 8 05 51 74 00 00 38 00 40  Length = 935987 BitCount = 120 ID = 1068
   2.069027 1  42A             Tx   d 8 D8 50 78 E0 00 00 00 00  Length = 943987 BitCount = 121 ID = 1066
   2.073683 1  509             Tx   d 3 1E 32 01  Length = 559987 BitCount = 73 ID = 1289
   2.073683    SV: 2 0 1 ::NM_CAN1::NODES::N_TRM::RequestIL = 0
   2.073683    SV: 2 0 1 ::NM_CAN1::NODES::N_RTM::RequestIL = 0
   2.073683    SV: 2 0 1 ::NM_CAN1::NODES::N_SOBDMD_AHCM_FOH::RequestIL = 0
   2.073683    SV: 2 0 1 ::NM_CAN1::NODES::N_RSM::RequestIL = 0
   2.073683    SV: 2 0 1 ::NM_CAN1::NODES::N_GWM::RequestIL = 0
   2.087011 1  58B             Tx   d 8 8B 00 00 00 00 00 00 00  Length = 959987 BitCount = 123 ID = 1419
   2.102139 1  33A             Tx   d 8 00 00 00 00 00 00 00 00  Length = 967987 BitCount = 124 ID = 826
   2.103131 1  332             Tx   d 8 00 00 00 00 00 00 00 00  Length = 967987 BitCount = 124 ID = 818
   2.104131 1  333             Tx   d 8 00 00 00 00 00 00 00 00  Length = 975987 BitCount = 125 ID = 819
   2.105139 1  3E1             Tx   d 8 00 00 00 00 00 80 00 00  Length = 983987 BitCount = 126 ID = 993
   2.135537 1  326             Rx   d 8 01 90 03 FF 01 90 00 C8  Length = 935773 BitCount = 121 ID = 806
   2.202097 1  333             Tx   d 8 00 00 00 00 00 00 00 00  Length = 975987 BitCount = 125 ID = 819
   2.203089 1  332             Tx   d 8 00 00 00 00 00 00 00 00  Length = 967987 BitCount = 124 ID = 818
   2.204081 1  33A             Tx   d 8 00 00 00 00 00 00 00 00  Length = 967987 BitCount = 124 ID = 826
   2.205081 1  33F             Tx   d 8 00 00 00 00 00 00 00 00  Length = 975987 BitCount = 125 ID = 831
   2.235534 1  326             Rx   d 8 01 90 03 FF 01 90 00 C8  Length = 935773 BitCount = 121 ID = 806
   2.236518 1  59E             Tx   d 8 9E 00 00 00 00 00 00 00  Length = 951987 BitCount = 122 ID = 1438
   2.297966 1  5A6             Tx   d 8 A6 00 00 00 00 00 00 00  Length = 951987 BitCount = 122 ID = 1446
   2.301998 1  33A             Tx   d 8 00 00 00 00 00 00 00 00  Length = 967987 BitCount = 124 ID = 826
   2.302998 1  333             Tx   d 8 00 00 00 00 00 00 00 00  Length = 975987 BitCount = 125 ID = 819
   2.303990 1  332             Tx   d 8 00 00 00 00 00 00 00 00  Length = 967987 BitCount = 124 ID = 818
   2.305910 1  5A7             Tx   d 8 A7 00 00 00 00 00 00 00  Length = 951987 BitCount = 122 ID = 1447
   2.335523 1  326             Rx   d 8 01 90 03 FF 01 90 00 C8  Length = 935773 BitCount = 121 ID = 806
   2.401915 1  333             Tx   d 8 00 00 00 00 00 00 00 00  Length = 975987 BitCount = 125 ID = 819
   2.402907 1  33A             Tx   d 8 00 00 00 00 00 00 00 00  Length = 967987 BitCount = 124 ID = 826
   2.403899 1  332             Tx   d 8 00 00 00 00 00 00 00 00  Length = 967987 BitCount = 124 ID = 818
   2.435520 1  326             Rx   d 8 01 90 03 FF 01 90 00 C8  Length = 935773 BitCount = 121 ID = 806
   2.501976 1  332             Tx   d 8 00 00 00 00 00 00 00 00  Length = 967987 BitCount = 124 ID = 818
   2.502976 1  333             Tx   d 8 00 00 00 00 00 00 00 00  Length = 975987 BitCount = 125 ID = 819
   2.503968 1  33A             Tx   d 8 00 00 00 00 00 00 00 00  Length = 967987 BitCount = 124 ID = 826
   2.535509 1  326             Rx   d 8 01 90 03 FF 01 90 00 C8  Length = 935773 BitCount = 121 ID = 806
   2.602133 1  33A             Tx   d 8 00 00 00 00 00 00 00 00  Length = 967987 BitCount = 124 ID = 826
   2.603125 1  332             Tx   d 8 00 00 00 00 00 00 00 00  Length = 967987 BitCount = 124 ID = 818
   2.604125 1  333             Tx   d 8 00 00 00 00 00 00 00 00  Length = 975987 BitCount = 125 ID = 819
   2.635507 1  326             Rx   d 8 01 90 03 FF 01 90 00 C8  Length = 935773 BitCount = 121 ID = 806
   2.689099 1  5D8             Tx   d 8 D8 00 00 00 00 00 00 00  Length = 967987 BitCount = 124 ID = 1496
   2.702099 1  332             Tx   d 8 00 00 00 00 00 00 00 00  Length = 967987 BitCount = 124 ID = 818
   2.703099 1  333             Tx   d 8 00 00 00 00 00 00 00 00  Length = 975987 BitCount = 125 ID = 819
   2.704091 1  33A             Tx   d 8 00 00 00 00 00 00 00 00  Length = 967987 BitCount = 124 ID = 826
   2.735496 1  326             Rx   d 8 01 90 03 FF 01 90 00 C8  Length = 935773 BitCount = 121 ID = 806
   2.802024 1  332             Tx   d 8 00 00 00 00 00 00 00 00  Length = 967987 BitCount = 124 ID = 818
   2.803024 1  333             Tx   d 8 00 00 00 00 00 00 00 00  Length = 975987 BitCount = 125 ID = 819
   2.804016 1  33A             Tx   d 8 00 00 00 00 00 00 00 00  Length = 967987 BitCount = 124 ID = 826
   2.835493 1  326             Rx   d 8 01 90 03 FF 01 90 00 C8  Length = 935773 BitCount = 121 ID = 806
   2.902013 1  33A             Tx   d 8 00 00 00 00 00 00 00 00  Length = 967987 BitCount = 124 ID = 826
   2.903005 1  332             Tx   d 8 00 00 00 00 00 00 00 00  Length = 967987 BitCount = 124 ID = 818
   2.904005 1  333             Tx   d 8 00 00 00 00 00 00 00 00  Length = 975987 BitCount = 125 ID = 819
   2.935482 1  326             Rx   d 8 01 90 03 FF 01 90 00 C8  Length = 935773 BitCount = 121 ID = 806
   3.001906 1  332             Tx   d 8 00 00 00 00 00 00 00 00  Length = 967987 BitCount = 124 ID = 818
   3.002914 1  304             Tx   d 8 00 00 00 00 00 00 00 00  Length = 983987 BitCount = 126 ID = 772
   3.003922 1  580             Tx   d 8 80 00 00 00 00 00 00 00  Length = 983987 BitCount = 126 ID = 1408
   3.004914 1  3DE             Tx   d 8 00 00 00 00 80 00 00 00  Length = 967987 BitCount = 124 ID = 990
   3.005914 1  333             Tx   d 8 00 00 00 00 00 00 00 00  Length = 975987 BitCount = 125 ID = 819
   3.006922 1  580             Tx   d 8 80 00 00 00 00 00 00 00  Length = 983987 BitCount = 126 ID = 1408
   3.007922 1  305             Tx   d 8 00 00 00 00 00 00 00 00  Length = 975987 BitCount = 125 ID = 773
   3.008930 1  33C             Tx   d 8 00 00 00 00 00 00 00 00  Length = 983987 BitCount = 126 ID = 828
   3.009938 1  580             Tx   d 8 80 00 00 00 00 00 00 00  Length = 983987 BitCount = 126 ID = 1408
   3.010946 1  580             Tx   d 8 80 00 00 00 00 00 00 00  Length = 983987 BitCount = 126 ID = 1408
   3.011954 1  580             Tx   d 8 80 00 00 00 00 00 00 00  Length = 983987 BitCount = 126 ID = 1408
   3.012946 1  33A             Tx   d 8 00 00 00 00 00 00 00 00  Length = 967987 BitCount = 124 ID = 826
   3.013954 1  580             Tx   d 8 80 00 00 00 00 00 00 00  Length = 983987 BitCount = 126 ID = 1408
   3.014962 1  580             Tx   d 8 80 00 00 00 00 00 00 00  Length = 983987 BitCount = 126 ID = 1408
   3.015970 1  580             Tx   d 8 80 00 00 00 00 00 00 00  Length = 983987 BitCount = 126 ID = 1408
   3.016978 1  580             Tx   d 8 80 00 00 00 00 00 00 00  Length = 983987 BitCount = 126 ID = 1408
   3.017986 1  125             Tx   d 8 00 00 00 00 00 00 00 00  Length = 983987 BitCount = 126 ID = 293
   3.018994 1  580             Tx   d 8 80 00 00 00 00 00 00 00  Length = 983987 BitCount = 126 ID = 1408
   3.019986 1  313             Tx   d 8 00 00 00 00 00 00 00 00  Length = 967987 BitCount = 124 ID = 787
   3.020994 1  580             Tx   d 8 80 00 00 00 00 00 00 00  Length = 983987 BitCount = 126 ID = 1408
   3.029973 1  Statistic: D 104 R 0 XD 0 XR 0 E 0 O 0 B 10.22%
   3.032834 1  584             Tx   d 8 84 00 00 00 00 00 00 00  Length = 975987 BitCount = 125 ID = 1412
   3.035497 1  326             Rx   d 8 01 90 03 FF 01 90 00 C8  Length = 935773 BitCount = 121 ID = 806
   3.036425 1  355             Rx   d 8 A2 07 A2 A0 2A AA 08 E0  Length = 895777 BitCount = 116 ID = 853
   3.037385 1  356             Rx   d 8 00 3C 20 20 20 20 00 00  Length = 927773 BitCount = 120 ID = 854
   3.038369 1  35E             Rx   d 8 00 C0 3E 00 72 00 00 00  Length = 951773 BitCount = 123 ID = 862
   3.039377 1  3E7             Rx   d 8 00 00 00 00 00 00 00 00  Length = 975773 BitCount = 126 ID = 999
   3.040369 1  41A             Rx   d 8 FE 00 00 00 00 00 00 00  Length = 959773 BitCount = 124 ID = 1050
   3.041353 1  124             Rx   d 8 02 02 00 00 00 00 00 00  Length = 951988 BitCount = 123 ID = 292
   3.042337 1  36D             Rx   d 8 80 00 00 00 00 00 00 00  Length = 951988 BitCount = 123 ID = 877
   3.043296 1  373             Rx   d 8 FF 7F BF DF EF F0 00 00  Length = 927504 BitCount = 120 ID = 883
   3.044288 1  585             Tx   d 8 85 00 00 00 00 00 00 00  Length = 959987 BitCount = 123 ID = 1413
   3.045232 1  374             Rx   d 8 FF 7F BF DF EF F7 F8 80  Length = 919773 BitCount = 119 ID = 884
   3.087080 1  58B             Tx   d 8 8B 00 00 00 00 00 00 00  Length = 959987 BitCount = 123 ID = 1419
   3.102144 1  332             Tx   d 8 00 00 00 00 00 00 00 00  Length = 967987 BitCount = 124 ID = 818
   3.103152 1  3E1             Tx   d 8 00 00 00 00 00 80 00 00  Length = 983987 BitCount = 126 ID = 993
   3.104152 1  333             Tx   d 8 00 00 00 00 00 00 00 00  Length = 975987 BitCount = 125 ID = 819
   3.105144 1  33A             Tx   d 8 00 00 00 00 00 00 00 00  Length = 967987 BitCount = 124 ID = 826
   3.135469 1  326             Rx   d 8 01 90 03 FF 01 90 00 C8  Length = 935773 BitCount = 121 ID = 806
   3.202053 1  33A             Tx   d 8 00 00 00 00 00 00 00 00  Length = 967987 BitCount = 124 ID = 826
   3.203053 1  333             Tx   d 8 00 00 00 00 00 00 00 00  Length = 975987 BitCount = 125 ID = 819
   3.204045 1  332             Tx   d 8 00 00 00 00 00 00 00 00  Length = 967987 BitCount = 124 ID = 818
   3.205045 1  33F             Tx   d 8 00 00 00 00 00 00 00 00  Length = 975987 BitCount = 125 ID = 831
   3.235459 1  326             Rx   d 8 01 90 03 FF 01 90 00 C8  Length = 935773 BitCount = 121 ID = 806
   3.236443 1  59E             Tx   d 8 9E 00 00 00 00 00 00 00  Length = 951987 BitCount = 122 ID = 1438
   3.297971 1  5A6             Tx   d 8 A6 00 00 00 00 00 00 00  Length = 951987 BitCount = 122 ID = 1446
   3.301971 1  33A             Tx   d 8 00 00 00 00 00 00 00 00  Length = 967987 BitCount = 124 ID = 826
   3.302971 1  333             Tx   d 8 00 00 00 00 00 00 00 00  Length = 975987 BitCount = 125 ID = 819
   3.303963 1  332             Tx   d 8 00 00 00 00 00 00 00 00  Length = 967987 BitCount = 124 ID = 818
   3.305987 1  5A7             Tx   d 8 A7 00 00 00 00 00 00 00  Length = 951987 BitCount = 122 ID = 1447
   3.335456 1  326             Rx   d 8 01 90 03 FF 01 90 00 C8  Length = 935773 BitCount = 121 ID = 806
   3.401920 1  333             Tx   d 8 00 00 00 00 00 00 00 00  Length = 975987 BitCount = 125 ID = 819
   3.402912 1  332             Tx   d 8 00 00 00 00 00 00 00 00  Length = 967987 BitCount = 124 ID = 818
   3.403904 1  33A             Tx   d 8 00 00 00 00 00 00 00 00  Length = 967987 BitCount = 124 ID = 826
   3.435445 1  326             Rx   d 8 01 90 03 FF 01 90 00 C8  Length = 935773 BitCount = 121 ID = 806
   3.501917 1  33A             Tx   d 8 00 00 00 00 00 00 00 00  Length = 967987 BitCount = 124 ID = 826
   3.502909 1  332             Tx   d 8 00 00 00 00 00 00 00 00  Length = 967987 BitCount = 124 ID = 818
   3.503909 1  333             Tx   d 8 00 00 00 00 00 00 00 00  Length = 975987 BitCount = 125 ID = 819
   3.535442 1  326             Rx   d 8 01 90 03 FF 01 90 00 C8  Length = 935773 BitCount = 121 ID = 806
   3.573683    SV: 2 0 1 ::NM_CAN1::NODES::N_RTM::State = 1
   3.573683    SV: 2 0 1 ::NM_CAN1::NODES::N_RTM::Mode = 0
   3.573683    SV: 2 0 1 ::NM_CAN1::NODES::N_SOBDMD_AHCM_FOH::State = 1
   3.573683    SV: 2 0 1 ::NM_CAN1::NODES::N_SOBDMD_AHCM_FOH::Mode = 0
   3.573683    SV: 2 0 1 ::NM_CAN1::NODES::N_TRM::State = 1
   3.573683    SV: 2 0 1 ::NM_CAN1::NODES::N_TRM::Mode = 0
   3.573683    SV: 2 0 1 ::NM_CAN1::NODES::N_RSM::State = 1
   3.573683    SV: 2 0 1 ::NM_CAN1::NODES::N_RSM::Mode = 0
   3.602050 1  332             Tx   d 8 00 00 00 00 00 00 00 00  Length = 967987 BitCount = 124 ID = 818
   3.602050    SV: 2 0 1 ::NM_CAN1::NODES::N_TRM::RequestIL = 1
   3.602050    SV: 2 0 1 ::NM_CAN1::StateControl::ActiveNodes = 16
   3.602050    SV: 2 0 1 ::NM_CAN1::NODES::N_TRM::State = 2
   3.602050    SV: 2 0 1 ::NM_CAN1::NODES::N_TRM::Mode = 1
   3.602050    SV: 2 0 1 ::NM_CAN1::NODES::N_RTM::RequestIL = 1
   3.602050    SV: 2 0 1 ::NM_CAN1::NODES::N_RTM::State = 2
   3.602050    SV: 2 0 1 ::NM_CAN1::NODES::N_RTM::Mode = 1
   3.602050    SV: 2 0 1 ::NM_CAN1::NODES::N_SOBDMD_AHCM_FOH::RequestIL = 1
   3.602050    SV: 2 0 1 ::NM_CAN1::NODES::N_SOBDMD_AHCM_FOH::State = 2
   3.602050    SV: 2 0 1 ::NM_CAN1::NODES::N_SOBDMD_AHCM_FOH::Mode = 1
   3.602050    SV: 2 0 1 ::NM_CAN1::NODES::N_RSM::RequestIL = 1
   3.602050    SV: 2 0 1 ::NM_CAN1::NODES::N_RSM::State = 2
   3.602050    SV: 2 0 1 ::NM_CAN1::NODES::N_RSM::Mode = 1
   3.602050    SV: 2 0 1 ::NM_CAN1::NODES::N_GWM::RequestIL = 1
   3.603042 1  33A             Tx   d 8 00 00 00 00 00 00 00 00  Length = 967987 BitCount = 124 ID = 826
   3.604042 1  333             Tx   d 8 00 00 00 00 00 00 00 00  Length = 975987 BitCount = 125 ID = 819
   3.604642 1  554             Tx   d 3 54 01 01  Length = 575987 BitCount = 75 ID = 1364
   3.605250 1  53B             Tx   d 3 3B 01 01  Length = 583987 BitCount = 76 ID = 1339
   3.605842 1  509             Tx   d 3 09 01 01  Length = 567987 BitCount = 74 ID = 1289
   3.606434 1  567             Tx   d 3 67 01 01  Length = 567987 BitCount = 74 ID = 1383
   3.607034 1  51E             Tx   d 3 1E 01 01  Length = 575987 BitCount = 75 ID = 1310
   3.608026 1  443             Tx   d 8 00 00 00 00 00 00 00 00  Length = 967987 BitCount = 124 ID = 1091
   3.609026 1  349             Tx   d 8 00 00 00 00 00 00 00 00  Length = 975987 BitCount = 125 ID = 841
   3.610034 1  344             Tx   d 8 00 00 00 00 00 00 00 00  Length = 983987 BitCount = 126 ID = 836
   3.611010 1  347             Tx   d 8 00 00 03 00 03 00 03 00  Length = 951987 BitCount = 122 ID = 839
   3.612002 1  386             Tx   d 8 00 00 00 00 00 00 00 00  Length = 967987 BitCount = 124 ID = 902
   3.612994 1  178             Tx   d 8 00 00 00 00 0C 00 00 00  Length = 967987 BitCount = 124 ID = 376
   3.613970 1  437             Tx   d 8 10 08 04 00 00 00 00 00  Length = 951987 BitCount = 122 ID = 1079
   3.614930 1  42C             Tx   d 8 05 51 74 00 00 38 00 40  Length = 935987 BitCount = 120 ID = 1068
   3.615890 1  42E             Tx   d 8 05 00 00 E0 00 0F 00 31  Length = 935987 BitCount = 120 ID = 1070
   3.616898 1  40A             Tx   d 8 00 00 00 00 00 00 00 00  Length = 983987 BitCount = 126 ID = 1034
   3.617866 1  42A             Tx   d 8 D8 50 78 E0 00 00 00 00  Length = 943987 BitCount = 121 ID = 1066
   3.618850 1  42B             Tx   d 8 00 88 00 00 00 00 00 00  Length = 959987 BitCount = 123 ID = 1067
   3.619802 1  433             Tx   d 8 FC 43 00 0F 07 02 00 00  Length = 927987 BitCount = 119 ID = 1075
   3.620802 1  3E2             Tx   d 8 00 00 00 00 80 00 00 00  Length = 975987 BitCount = 125 ID = 994
   3.621810 1  415             Tx   d 8 00 00 00 00 00 00 00 00  Length = 983987 BitCount = 126 ID = 1045
   3.622818 1  3E0             Tx   d 8 00 00 00 00 80 00 00 00  Length = 983987 BitCount = 126 ID = 992
   3.623826 1  358             Tx   d 8 00 00 00 00 00 00 00 00  Length = 983987 BitCount = 126 ID = 856
   3.624794 1  36A             Tx   d 8 FF 80 FF 80 00 00 00 00  Length = 943987 BitCount = 121 ID = 874
   3.625794 1  3B1             Tx   d 8 00 00 00 00 00 00 00 00  Length = 975987 BitCount = 125 ID = 945
   3.626786 1  33B             Tx   d 8 00 00 00 00 00 00 00 00  Length = 967987 BitCount = 124 ID = 827
   3.627754 1  3B3             Tx   d 8 10 80 C0 0C E0 02 00 00  Length = 943987 BitCount = 121 ID = 947
   3.628706 1  3BC             Tx   d 8 EC 00 1C 96 00 00 3F 00  Length = 927987 BitCount = 119 ID = 956
   3.629650 1  3C4             Tx   d 8 56 00 E8 7F 00 00 9F D7  Length = 919987 BitCount = 118 ID = 964
   3.630642 1  3D5             Tx   d 8 04 00 00 00 00 00 00 00  Length = 967987 BitCount = 124 ID = 981
   3.631634 1  3BE             Tx   d 8 00 00 00 CC 00 00 00 21  Length = 967987 BitCount = 124 ID = 958
   3.632618 1  3EB             Tx   d 8 00 04 44 00 00 00 00 00  Length = 959987 BitCount = 123 ID = 1003
   3.633602 1  331             Tx   d 8 40 00 00 00 02 00 00 00  Length = 959987 BitCount = 123 ID = 817
   3.634586 1  359             Tx   d 8 00 3C 00 00 00 00 00 00  Length = 959987 BitCount = 123 ID = 857
   3.635561 1  31C             Tx   d 8 00 00 00 7F 00 00 88 14  Length = 951771 BitCount = 122 ID = 796
   3.636553 1  216             Tx   d 8 00 00 00 00 00 00 00 00  Length = 967987 BitCount = 124 ID = 534
   3.637545 1  167             Tx   d 8 01 00 00 00 00 00 00 00  Length = 967987 BitCount = 124 ID = 359
   3.638481 1  2FD             Tx   d 8 44 00 E4 4C 01 51 C0 52  Length = 911987 BitCount = 117 ID = 765
   3.639465 1  83              Tx   d 8 00 00 03 FE FF 91 FF FE  Length = 959771 BitCount = 123 ID = 131
   3.640425 1  326             Rx   d 8 01 90 03 FF 01 90 00 C8  Length = 935773 BitCount = 121 ID = 806
   3.652033 1  3BC             Tx   d 8 EC 00 1C 96 00 00 3F 00  Length = 927987 BitCount = 119 ID = 956
   3.653001 1  42A             Tx   d 8 D8 50 78 E0 00 00 00 00  Length = 943987 BitCount = 121 ID = 1066
   3.653961 1  42C             Tx   d 8 05 51 74 00 00 38 00 40  Length = 935987 BitCount = 120 ID = 1068
   3.654921 1  42E             Tx   d 8 05 00 00 E0 00 0F 00 31  Length = 935987 BitCount = 120 ID = 1070
   3.689065 1  5D8             Tx   d 8 D8 00 00 00 00 00 00 00  Length = 967987 BitCount = 124 ID = 1496
   3.702057 1  42C             Tx   d 8 05 51 74 00 00 38 00 40  Length = 935987 BitCount = 120 ID = 1068
   3.703009 1  3BC             Tx   d 8 EC 00 1C 96 00 00 3F 00  Length = 927987 BitCount = 119 ID = 956
   3.703977 1  42A             Tx   d 8 D8 50 78 E0 00 00 00 00  Length = 943987 BitCount = 121 ID = 1066
   3.704937 1  42E             Tx   d 8 05 00 00 E0 00 0F 00 31  Length = 935987 BitCount = 120 ID = 1070
   3.705929 1  3BE             Tx   d 8 00 00 00 CC 00 00 00 21  Length = 967987 BitCount = 124 ID = 958
   3.706921 1  332             Tx   d 8 00 00 00 00 00 00 00 00  Length = 967987 BitCount = 124 ID = 818
   3.707921 1  333             Tx   d 8 00 00 00 00 00 00 00 00  Length = 975987 BitCount = 125 ID = 819
   3.708913 1  216             Tx   d 8 00 00 00 00 00 00 00 00  Length = 967987 BitCount = 124 ID = 534
   3.709889 1  347             Tx   d 8 00 00 03 00 03 00 03 00  Length = 951987 BitCount = 122 ID = 839
   3.710897 1  415             Tx   d 8 00 00 00 00 00 00 00 00  Length = 983987 BitCount = 126 ID = 1045
   3.711881 1  83              Tx   d 8 00 00 03 FE FF 91 FF FE  Length = 959987 BitCount = 123 ID = 131
   3.712873 1  33A             Tx   d 8 00 00 00 00 00 00 00 00  Length = 967987 BitCount = 124 ID = 826
   3.713465 1  51E             Tx   d 3 3B 02 02  Length = 567987 BitCount = 74 ID = 1310
   3.714065 1  554             Tx   d 3 67 02 02  Length = 575987 BitCount = 75 ID = 1364
   3.714665 1  53B             Tx   d 3 54 02 02  Length = 575987 BitCount = 75 ID = 1339
   3.715257 1  509             Tx   d 3 1E 02 02  Length = 567987 BitCount = 74 ID = 1289
   3.715849 1  567             Tx   d 3 09 02 02  Length = 567987 BitCount = 74 ID = 1383
   3.735431 1  326             Rx   d 8 01 90 03 FF 01 90 00 C8  Length = 935773 BitCount = 121 ID = 806
   3.751967 1  42A             Tx   d 8 D8 50 78 E0 00 00 00 00  Length = 943987 BitCount = 121 ID = 1066
   3.752927 1  42C             Tx   d 8 05 51 74 00 00 38 00 40  Length = 935987 BitCount = 120 ID = 1068
   3.753887 1  42E             Tx   d 8 05 00 00 E0 00 0F 00 31  Length = 935987 BitCount = 120 ID = 1070
   3.754839 1  3BC             Tx   d 8 EC 00 1C 96 00 00 3F 00  Length = 927987 BitCount = 119 ID = 956
   3.755823 1  42B             Tx   d 8 00 88 00 00 00 00 00 00  Length = 959987 BitCount = 123 ID = 1067
   3.801903 1  3BC             Tx   d 8 EC 00 1C 96 00 00 3F 00  Length = 927987 BitCount = 119 ID = 956
   3.802863 1  42C             Tx   d 8 05 51 74 00 00 38 00 40  Length = 935987 BitCount = 120 ID = 1068
   3.803855 1  216             Tx   d 8 00 00 00 00 00 00 00 00  Length = 967987 BitCount = 124 ID = 534
   3.804823 1  42A             Tx   d 8 D8 50 78 E0 00 00 00 00  Length = 943987 BitCount = 121 ID = 1066
   3.805823 1  333             Tx   d 8 00 00 00 00 00 00 00 00  Length = 975987 BitCount = 125 ID = 819
   3.806815 1  332             Tx   d 8 00 00 00 00 00 00 00 00  Length = 967987 BitCount = 124 ID = 818
   3.807807 1  3BE             Tx   d 8 00 00 00 CC 00 00 00 21  Length = 967987 BitCount = 124 ID = 958
   3.808767 1  42E             Tx   d 8 05 00 00 E0 00 0F 00 31  Length = 935987 BitCount = 120 ID = 1070
   3.809775 1  415             Tx   d 8 00 00 00 00 00 00 00 00  Length = 983987 BitCount = 126 ID = 1045
   3.810719 1  3C4             Tx   d 8 56 00 E8 7F 00 00 9F D7  Length = 919987 BitCount = 118 ID = 964
   3.811695 1  347             Tx   d 8 00 00 03 00 03 00 03 00  Length = 951987 BitCount = 122 ID = 839
   3.812679 1  83              Tx   d 8 00 00 03 FE FF 91 FF FE  Length = 959987 BitCount = 123 ID = 131
   3.813671 1  33A             Tx   d 8 00 00 00 00 00 00 00 00  Length = 967987 BitCount = 124 ID = 826
   3.817535 1  509             Tx   d 3 1E 02 02  Length = 567987 BitCount = 74 ID = 1289
   3.835422 1  326             Rx   d 8 01 90 03 FF 01 90 00 C8  Length = 935773 BitCount = 121 ID = 806
   3.851918 1  3BC             Tx   d 8 EC 00 1C 96 00 00 3F 00  Length = 927987 BitCount = 119 ID = 956
   3.852878 1  42C             Tx   d 8 05 51 74 00 00 38 00 40  Length = 935987 BitCount = 120 ID = 1068
   3.853838 1  42E             Tx   d 8 05 00 00 E0 00 0F 00 31  Length = 935987 BitCount = 120 ID = 1070
   3.854806 1  42A             Tx   d 8 D8 50 78 E0 00 00 00 00  Length = 943987 BitCount = 121 ID = 1066
   3.901902 1  42A             Tx   d 8 D8 50 78 E0 00 00 00 00  Length = 943987 BitCount = 121 ID = 1066
   3.902862 1  42C             Tx   d 8 05 51 74 00 00 38 00 40  Length = 935987 BitCount = 120 ID = 1068
   3.903822 1  42E             Tx   d 8 05 00 00 E0 00 0F 00 31  Length = 935987 BitCount = 120 ID = 1070
   3.904814 1  33A             Tx   d 8 00 00 00 00 00 00 00 00  Length = 967987 BitCount = 124 ID = 826
   3.905766 1  3BC             Tx   d 8 EC 00 1C 96 00 00 3F 00  Length = 927987 BitCount = 119 ID = 956
   3.906758 1  216             Tx   d 8 00 00 00 00 00 00 00 00  Length = 967987 BitCount = 124 ID = 534
   3.907742 1  83              Tx   d 8 00 00 03 FE FF 91 FF FE  Length = 959987 BitCount = 123 ID = 131
   3.908734 1  3BE             Tx   d 8 00 00 00 CC 00 00 00 21  Length = 967987 BitCount = 124 ID = 958
   3.909726 1  332             Tx   d 8 00 00 00 00 00 00 00 00  Length = 967987 BitCount = 124 ID = 818
   3.910702 1  347             Tx   d 8 00 00 03 00 03 00 03 00  Length = 951987 BitCount = 122 ID = 839
   3.911710 1  415             Tx   d 8 00 00 00 00 00 00 00 00  Length = 983987 BitCount = 126 ID = 1045
   3.912710 1  333             Tx   d 8 00 00 00 00 00 00 00 00  Length = 975987 BitCount = 125 ID = 819
   3.918526 1  51E             Tx   d 3 3B 02 02  Length = 567987 BitCount = 74 ID = 1310
   3.935412 1  326             Rx   d 8 01 90 03 FF 01 90 00 C8  Length = 935773 BitCount = 121 ID = 806
   3.951860 1  42E             Tx   d 8 05 00 00 E0 00 0F 00 31  Length = 935987 BitCount = 120 ID = 1070
   3.952820 1  42C             Tx   d 8 05 51 74 00 00 38 00 40  Length = 935987 BitCount = 120 ID = 1068
   3.953788 1  42A             Tx   d 8 D8 50 78 E0 00 00 00 00  Length = 943987 BitCount = 121 ID = 1066
   3.954740 1  3BC             Tx   d 8 EC 00 1C 96 00 00 3F 00  Length = 927987 BitCount = 119 ID = 956
   4.000000    SV: 2 0 1 ::NM_CAN1::NODES::N_RGTM::State = 3
   4.000000    SV: 2 0 1 ::NM_CAN1::NODES::N_RGTM::Mode = 1
   4.000000    SV: 2 0 1 ::NM_CAN1::NODES::N_DDM::State = 3
   4.000000    SV: 2 0 1 ::NM_CAN1::NODES::N_DDM::Mode = 1
   4.000000    SV: 2 0 1 ::NM_CAN1::NODES::N_PDM::State = 3
   4.000000    SV: 2 0 1 ::NM_CAN1::NODES::N_PDM::Mode = 1
   4.000000    SV: 2 0 1 ::NM_CAN1::NODES::N_SCME::State = 3
   4.000000    SV: 2 0 1 ::NM_CAN1::NODES::N_SCME::Mode = 1
   4.000000    envNetworkState := "NM_STATE_READY_SLEEP"
   4.000000    SV: 2 0 1 ::NM_CAN1::NODES::N_GWM::State = 3
   4.000000    SV: 2 0 1 ::NM_CAN1::NODES::N_GWM::Mode = 1
   4.000000    SV: 2 0 1 ::NM_CAN1::NODES::N_DSM::State = 3
   4.000000    SV: 2 0 1 ::NM_CAN1::NODES::N_DSM::Mode = 1
   4.001828 1  3BC             Tx   d 8 EC 00 1C 96 00 00 3F 00  Length = 927987 BitCount = 119 ID = 956
   4.002796 1  42A             Tx   d 8 D8 50 78 E0 00 00 00 00  Length = 943987 BitCount = 121 ID = 1066
   4.003804 1  415             Tx   d 8 00 00 00 00 00 00 00 00  Length = 983987 BitCount = 126 ID = 1045
   4.004764 1  42E             Tx   d 8 05 00 00 E0 00 0F 00 31  Length = 935987 BitCount = 120 ID = 1070
   4.005724 1  42C             Tx   d 8 05 51 74 00 00 38 00 40  Length = 935987 BitCount = 120 ID = 1068
   4.006708 1  359             Tx   d 8 00 3C 00 00 00 00 00 00  Length = 959987 BitCount = 123 ID = 857
